# Total Phase Data Center(tm) v5.14
# (c) 2005-2011 Total Phase, Inc.
# www.totalphase.com
#
# Fri Dec 23  2011
#
# Level,Index,m:s.ms.us,Dur,Len,Err,S/P,Addr,Record,Data
0,0,0:00.000.000,,,,,,Capture started,[12/22/11 18:13:51]
0,1,1:05.546.262,304.230.400 ms,1 B,TMP1,,None,Corrupt Transaction,80*
0,2,3:35.848.619,167.200 us,1 B,,SP,68,Read Transaction,00*
0,3,3:35.848.834,86.100 us,1 B,,SP,68,Write Transaction,01*
0,4,3:35.849.063,176.400 us,1 B,,S,71,Write Transaction,00
0,5,3:35.849.239,140.400 us,1 B,,SP,71,Read Transaction,F3*
0,6,3:35.851.863,134.100 us,1 B,,SP,68,Read Transaction,01*
0,7,3:35.852.035,113.700 us,1 B,,S,72,Write Transaction,00
0,8,3:35.852.148,123.600 us,1 B,,SP,72,Read Transaction,F0*
0,9,3:35.855.779,172.200 us,1 B,,SP,68,Read Transaction,01*
0,10,3:35.856.001,137.500 us,1 B,,S,71,Write Transaction,00
0,11,3:35.856.138,221.100 us,1 B,,SP,71,Read Transaction,F3*
0,12,3:35.859.168,146.800 us,1 B,,SP,68,Read Transaction,01*
0,13,3:35.859.357,124.200 us,1 B,,S,72,Write Transaction,00
0,14,3:35.859.481,138.400 us,1 B,,SP,72,Read Transaction,F0*
0,15,3:35.862.057,165.400 us,1 B,,SP,68,Read Transaction,01*
0,16,3:35.862.270,120.300 us,1 B,,S,72,Write Transaction,03
0,17,3:35.862.391,160.100 us,1 B,,SP,72,Read Transaction,FF*
0,18,3:35.865.050,378.400 us,1 B,,SP,68,Read Transaction,01*
0,19,3:35.865.503,148.100 us,2 B,,SP,72,Write Transaction,03 50
0,20,3:35.868.235,224.100 us,1 B,,SP,68,Read Transaction,01*
0,21,3:35.868.510,146.600 us,2 B,,SP,72,Write Transaction,01 24
0,22,3:35.873.013,233.700 us,1 B,,SP,68,Read Transaction,01*
0,23,3:35.873.303,149.400 us,2 B,,SP,71,Write Transaction,03 CC
0,24,3:35.875.972,139.200 us,1 B,,SP,68,Read Transaction,01*
0,25,3:35.876.158,93.200 us,1 B,,SP,68,Write Transaction,02
0,26,3:35.876.394,118.800 us,1 B,,S,71,Write Transaction,00
0,27,3:35.876.512,139.900 us,1 B,,SP,71,Read Transaction,F3*
0,28,3:35.879.025,165.500 us,1 B,,SP,68,Read Transaction,02*
0,29,3:35.879.243,125.800 us,1 B,,S,72,Write Transaction,00
0,30,3:35.879.368,143.000 us,1 B,,SP,72,Read Transaction,F0*
0,31,3:35.885.333,1.345.100 ms,1 B,,SP,68,Read Transaction,02*
0,32,3:35.886.771,1.039.900 ms,1 B,,S,71,Write Transaction,00
0,33,3:35.887.811,816.400 us,1 B,,SP,71,Read Transaction,F3*
0,34,3:35.901.948,140.400 us,1 B,,SP,68,Read Transaction,02*
0,35,3:35.902.152,111.500 us,1 B,,S,72,Write Transaction,00
0,36,3:35.902.263,124.200 us,1 B,,SP,72,Read Transaction,F0*
0,37,3:35.929.471,121.900 us,1 B,,SP,68,Read Transaction,02*
0,38,3:35.929.623,111.400 us,1 B,,S,72,Write Transaction,03
0,39,3:35.929.735,123.600 us,1 B,,SP,72,Read Transaction,FF*
0,40,3:35.944.662,141.200 us,1 B,,SP,68,Read Transaction,02*
0,41,3:35.944.839,139.800 us,2 B,,SP,72,Write Transaction,03 50
0,42,3:35.958.596,130.200 us,1 B,,SP,68,Read Transaction,02*
0,43,3:35.958.764,140.000 us,2 B,,SP,72,Write Transaction,01 24
0,44,3:35.967.667,133.500 us,1 B,,SP,68,Read Transaction,02*
0,45,3:35.967.833,143.500 us,2 B,,SP,71,Write Transaction,03 CC
0,46,3:35.974.096,131.400 us,1 B,,SP,68,Read Transaction,02*
0,47,3:35.974.264,84.000 us,1 B,,SP,68,Write Transaction,03
0,48,3:35.974.446,113.800 us,1 B,,S,71,Write Transaction,00
0,49,3:35.974.560,169.100 us,1 B,,SP,71,Read Transaction,F3*
0,50,3:35.977.885,2.515.600 ms,1 B,,SP,68,Read Transaction,03*
0,51,3:35.980.481,114.300 us,1 B,,S,72,Write Transaction,00
0,52,3:35.980.596,123.400 us,1 B,,SP,72,Read Transaction,F0*
0,53,3:35.985.658,1.841.000 ms,1 B,,SP,68,Read Transaction,03*
0,54,3:35.987.590,183.300 us,1 B,,S,71,Write Transaction,00
0,55,3:35.987.773,447.000 us,1 B,,SP,71,Read Transaction,F3*
0,56,3:35.999.926,970.000 us,1 B,,SP,68,Read Transaction,03*
0,57,3:36.001.412,147.300 us,1 B,,S,72,Write Transaction,00
0,58,3:36.001.559,203.600 us,1 B,,SP,72,Read Transaction,F0*
0,59,3:36.013.364,1.648.400 ms,1 B,,SP,68,Read Transaction,03*
0,60,3:36.015.106,130.400 us,1 B,,S,72,Write Transaction,03
0,61,3:36.015.236,173.100 us,1 B,,SP,72,Read Transaction,FF*
0,62,3:36.026.198,1.347.600 ms,1 B,,SP,68,Read Transaction,03*
0,63,3:36.027.695,571.700 us,2 B,,SP,72,Write Transaction,03 50
0,64,3:36.038.781,1.971.800 ms,1 B,,SP,68,Read Transaction,03*
0,65,3:36.040.839,557.200 us,2 B,,SP,72,Write Transaction,01 24
0,66,3:36.048.828,173.300 us,1 B,,SP,68,Read Transaction,03*
0,67,3:36.049.051,275.000 us,2 B,,SP,71,Write Transaction,03 CC
0,68,3:36.057.464,321.800 us,1 B,,SP,68,Read Transaction,03*
0,69,3:36.057.865,150.300 us,1 B,,SP,68,Write Transaction,04
0,70,3:36.058.156,146.400 us,1 B,,S,71,Write Transaction,00
0,71,3:36.058.303,255.600 us,1 B,,SP,71,Read Transaction,F3*
0,72,3:36.069.308,315.000 us,1 B,,SP,68,Read Transaction,04*
0,73,3:36.069.692,112.200 us,1 B,,S,72,Write Transaction,00
0,74,3:36.069.805,152.900 us,1 B,,SP,72,Read Transaction,F0*
0,75,3:36.084.786,154.300 us,1 B,,SP,68,Read Transaction,04*
0,76,3:36.085.058,121.000 us,1 B,,S,71,Write Transaction,00
0,77,3:36.085.179,295.700 us,1 B,,SP,71,Read Transaction,F3*
0,78,3:36.090.059,228.100 us,1 B,,SP,68,Read Transaction,04*
0,79,3:36.090.361,152.400 us,1 B,,S,72,Write Transaction,00
0,80,3:36.090.513,220.600 us,1 B,,SP,72,Read Transaction,F0*
0,81,3:36.102.427,848.500 us,1 B,,SP,68,Read Transaction,04*
0,82,3:36.103.353,183.200 us,1 B,,S,72,Write Transaction,03
0,83,3:36.103.536,1.207.800 ms,1 B,,SP,72,Read Transaction,FF*
0,84,3:36.115.692,2.040.200 ms,1 B,,SP,68,Read Transaction,04*
0,85,3:36.117.815,140.300 us,2 B,,SP,72,Write Transaction,03 50
0,86,3:36.130.327,1.757.900 ms,1 B,,SP,68,Read Transaction,04*
0,87,3:36.132.213,142.200 us,2 B,,SP,72,Write Transaction,01 24
0,88,3:36.143.308,3.036.700 ms,1 B,,SP,68,Read Transaction,04*
0,89,3:36.146.684,318.600 us,2 B,,SP,71,Write Transaction,03 CC
0,90,3:36.154.371,1.272.000 ms,1 B,,SP,68,Read Transaction,04*
0,91,3:36.155.734,572.500 us,1 B,,SP,68,Write Transaction,05
0,92,3:36.156.480,131.500 us,1 B,,S,71,Write Transaction,00
0,93,3:36.156.611,155.900 us,1 B,,SP,71,Read Transaction,F3*
0,94,3:36.170.316,1.249.400 ms,1 B,,SP,68,Read Transaction,05*
0,95,3:36.171.640,114.000 us,1 B,,S,72,Write Transaction,00
0,96,3:36.171.754,123.700 us,1 B,,SP,72,Read Transaction,F0*
0,97,3:36.189.382,669.600 us,1 B,,SP,68,Read Transaction,05*
0,98,3:36.190.127,850.300 us,1 B,,S,71,Write Transaction,00
0,99,3:36.190.977,817.300 us,1 B,,SP,71,Read Transaction,F3*
0,100,3:36.201.087,204.100 us,1 B,,SP,68,Read Transaction,05*
0,101,3:36.201.692,171.400 us,1 B,,S,72,Write Transaction,00
0,102,3:36.201.864,143.100 us,1 B,,SP,72,Read Transaction,F0*
0,103,3:36.213.397,1.810.000 ms,1 B,,SP,68,Read Transaction,05*
0,104,3:36.215.286,141.000 us,1 B,,S,72,Write Transaction,03
0,105,3:36.215.427,197.300 us,1 B,,SP,72,Read Transaction,FF*
0,106,3:36.224.756,2.583.100 ms,1 B,,SP,68,Read Transaction,05*
0,107,3:36.227.431,145.100 us,2 B,,SP,72,Write Transaction,03 50
0,108,3:36.233.003,787.900 us,1 B,,SP,68,Read Transaction,05*
0,109,3:36.233.917,154.100 us,2 B,,SP,72,Write Transaction,01 24
0,110,3:36.240.999,1.967.000 ms,1 B,,SP,68,Read Transaction,05*
0,111,3:36.243.098,155.600 us,2 B,,SP,71,Write Transaction,03 CC
0,112,3:36.247.237,159.700 us,1 B,,SP,68,Read Transaction,05*
0,113,3:36.247.449,138.800 us,1 B,,SP,68,Write Transaction,06
0,114,3:36.247.800,270.800 us,1 B,,S,71,Write Transaction,00
0,115,3:36.248.071,154.800 us,1 B,,SP,71,Read Transaction,B3*
0,116,3:36.252.749,133.000 us,1 B,,SP,68,Read Transaction,06*
0,117,3:36.252.942,199.000 us,1 B,,S,72,Write Transaction,00
0,118,3:36.253.141,256.200 us,1 B,,SP,72,Read Transaction,F0*
0,119,3:36.257.434,895.800 us,1 B,,SP,68,Read Transaction,06*
0,120,3:36.258.409,473.000 us,1 B,,S,71,Write Transaction,00
0,121,3:36.258.882,1.120.600 ms,1 B,,SP,71,Read Transaction,B3*
0,122,3:36.277.294,1.151.600 ms,1 B,,SP,68,Read Transaction,06*
0,123,3:36.278.530,757.300 us,1 B,,S,72,Write Transaction,00
0,124,3:36.279.288,192.700 us,1 B,,SP,72,Read Transaction,F0*
0,125,3:36.290.139,3.202.800 ms,1 B,,SP,68,Read Transaction,06*
0,126,3:36.293.432,125.400 us,1 B,,S,72,Write Transaction,03
0,127,3:36.293.558,172.600 us,1 B,,SP,72,Read Transaction,FF*
0,128,3:36.303.048,1.817.200 ms,1 B,,SP,68,Read Transaction,06*
0,129,3:36.305.000,143.600 us,2 B,,SP,72,Write Transaction,03 50
0,130,3:36.315.590,1.850.300 ms,1 B,,SP,68,Read Transaction,06*
0,131,3:36.317.524,150.400 us,2 B,,SP,72,Write Transaction,01 24
0,132,3:36.325.603,1.761.400 ms,1 B,,SP,68,Read Transaction,06*
0,133,3:36.327.450,187.800 us,2 B,,SP,71,Write Transaction,03 CC
0,134,3:36.340.673,192.700 us,1 B,,SP,68,Read Transaction,06*
0,135,3:36.340.949,79.800 us,1 B,,SP,68,Write Transaction,07
0,136,3:36.341.473,111.900 us,1 B,,S,71,Write Transaction,00
0,137,3:36.341.584,154.600 us,1 B,,SP,71,Read Transaction,F3*
0,138,3:36.349.521,240.700 us,1 B,,SP,68,Read Transaction,07*
0,139,3:36.349.816,116.900 us,1 B,,S,72,Write Transaction,00
0,140,3:36.349.933,227.000 us,1 B,,SP,72,Read Transaction,F0*
0,141,3:36.356.865,188.400 us,1 B,,SP,68,Read Transaction,07*
0,142,3:36.357.096,239.700 us,1 B,,S,71,Write Transaction,00
0,143,3:36.357.335,301.600 us,1 B,,SP,71,Read Transaction,F3*
0,144,3:36.362.303,197.000 us,1 B,,SP,68,Read Transaction,07*
0,145,3:36.362.564,116.900 us,1 B,,S,72,Write Transaction,00
0,146,3:36.362.681,153.700 us,1 B,,SP,72,Read Transaction,F0*
0,147,3:36.367.468,195.300 us,1 B,,SP,68,Read Transaction,07*
0,148,3:36.367.717,117.900 us,1 B,,S,72,Write Transaction,03
0,149,3:36.367.835,124.300 us,1 B,,SP,72,Read Transaction,FF*
0,150,3:36.370.340,200.000 us,1 B,,SP,68,Read Transaction,07*
0,151,3:36.370.591,143.800 us,2 B,,SP,72,Write Transaction,03 50
0,152,3:36.373.174,189.800 us,1 B,,SP,68,Read Transaction,07*
0,153,3:36.373.406,141.100 us,2 B,,SP,72,Write Transaction,01 24
0,154,3:36.376.002,243.300 us,1 B,,SP,68,Read Transaction,07*
0,155,3:36.376.297,145.900 us,2 B,,SP,71,Write Transaction,03 CC
0,156,3:36.378.174,102.400 us,1 B,,SP,1B,Read Transaction,7F*
0,157,3:36.378.299,103.600 us,1 B,,SP,1C,Read Transaction,80*
0,158,3:36.604.616,210.700 us,1 B,,SP,68,Read Transaction,07*
0,159,3:36.604.877,84.500 us,1 B,,SP,68,Write Transaction,01
0,160,3:36.605.077,4.950.100 ms,150 B,,SP,5A,Read Transaction,FD 03 AD 01 52 FF FF FF FF FF FF FF FF FF FF FF FF FF FF FF FF FF FF FF FF FF FF FF FF FF FF FF FF FF FF FF FF FF FF FF FF FF FF FF FF FF FF FF FF FF FF FF FF FF FF FF FF FF FF FF FF FF FF FF FF FF FF FF FF FF FF FF FF FF FF FF FF FF FF FF FF FF FF FF FF FF FF FF FF FF FF FF FF FF FF FF FF FF FF FF FF FF FF FF FF FF FF FF FF FF FF FF FF FF FF FF FF FF FF FF FF FF FF FF FF FF FF FF FF FF FF FF FF FF FF FF FF FF FF FF FF FF FF FF FF FF FF FF FF FF*
0,161,3:36.612.612,131.500 us,1 B,,SP,68,Read Transaction,01*
0,162,3:36.612.793,17.561.700 ms,5 B,,SP,5A,Write Transaction,FD 03 A1 AD B2
0,163,3:36.650.071,132.700 us,1 B,,SP,68,Read Transaction,01*
0,164,3:36.650.246,88.800 us,1 B,,SP,68,Write Transaction,02
0,165,3:36.650.508,21.641.800 ms,150 B,,SP,5A,Read Transaction,FD 03 AD 01 52 FF FF FF FF FF FF FF FF FF FF FF FF FF FF FF FF FF FF FF FF FF FF FF FF FF FF FF FF FF FF FF FF FF FF FF FF FF FF FF FF FF FF FF FF FF FF FF FF FF FF FF FF FF FF FF FF FF FF FF FF FF FF FF FF FF FF FF FF FF FF FF FF FF FF FF FF FF FF FF FF FF FF FF FF FF FF FF FF FF FF FF FF FF FF FF FF FF FF FF FF FF FF FF FF FF FF FF FF FF FF FF FF FF FF FF FF FF FF FF FF FF FF FF FF FF FF FF FF FF FF FF FF FF FF FF FF FF FF FF FF FF FF FF FF FF*
0,166,3:36.680.618,155.800 us,1 B,,SP,68,Read Transaction,02*
0,167,3:36.680.830,239.400 us,5 B,,SP,5A,Write Transaction,FD 03 A1 AD B2
0,168,3:36.707.815,169.700 us,1 B,,SP,68,Read Transaction,02*
0,169,3:36.708.032,90.300 us,1 B,,SP,68,Write Transaction,03
0,170,3:36.708.250,5.867.700 ms,150 B,,SP,5A,Read Transaction,FD 03 AD 01 52 FF FF FF FF FF FF FF FF FF FF FF FF FF FF FF FF FF FF FF FF FF FF FF FF FF FF FF FF FF FF FF FF FF FF FF FF FF FF FF FF FF FF FF FF FF FF FF FF FF FF FF FF FF FF FF FF FF FF FF FF FF FF FF FF FF FF FF FF FF FF FF FF FF FF FF FF FF FF FF FF FF FF FF FF FF FF FF FF FF FF FF FF FF FF FF FF FF FF FF FF FF FF FF FF FF FF FF FF FF FF FF FF FF FF FF FF FF FF FF FF FF FF FF FF FF FF FF FF FF FF FF FF FF FF FF FF FF FF FF FF FF FF FF FF FF*
0,171,3:36.716.571,132.100 us,1 B,,SP,68,Read Transaction,03*
0,172,3:36.716.739,339.800 us,5 B,,SP,5A,Write Transaction,FD 03 A1 AD B2
0,173,3:36.737.078,161.100 us,1 B,,SP,68,Read Transaction,03*
0,174,3:36.737.370,90.400 us,1 B,,SP,68,Write Transaction,04
0,175,3:36.737.566,4.933.900 ms,150 B,,SP,5A,Read Transaction,FD 03 AD 01 52 FF FF FF FF FF FF FF FF FF FF FF FF FF FF FF FF FF FF FF FF FF FF FF FF FF FF FF FF FF FF FF FF FF FF FF FF FF FF FF FF FF FF FF FF FF FF FF FF FF FF FF FF FF FF FF FF FF FF FF FF FF FF FF FF FF FF FF FF FF FF FF FF FF FF FF FF FF FF FF FF FF FF FF FF FF FF FF FF FF FF FF FF FF FF FF FF FF FF FF FF FF FF FF FF FF FF FF FF FF FF FF FF FF FF FF FF FF FF FF FF FF FF FF FF FF FF FF FF FF FF FF FF FF FF FF FF FF FF FF FF FF FF FF FF FF*
0,176,3:36.745.123,129.700 us,1 B,,SP,68,Read Transaction,04*
0,177,3:36.745.595,16.586.300 ms,5 B,,SP,5A,Write Transaction,FD 03 A1 AD B2
0,178,3:36.781.994,133.400 us,1 B,,SP,68,Read Transaction,04*
0,179,3:36.782.165,84.300 us,1 B,,SP,68,Write Transaction,05
0,180,3:36.782.366,24.930.700 ms,150 B,,SP,5A,Read Transaction,FD 03 AD 01 52 FF FF FF FF FF FF FF FF FF FF FF FF FF FF FF FF FF FF FF FF FF FF FF FF FF FF FF FF FF FF FF FF FF FF FF FF FF FF FF FF FF FF FF FF FF FF FF FF FF FF FF FF FF FF FF FF FF FF FF FF FF FF FF FF FF FF FF FF FF FF FF FF FF FF FF FF FF FF FF FF FF FF FF FF FF FF FF FF FF FF FF FF FF FF FF FF FF FF FF FF FF FF FF FF FF FF FF FF FF FF FF FF FF FF FF FF FF FF FF FF FF FF FF FF FF FF FF FF FF FF FF FF FF FF FF FF FF FF FF FF FF FF FF FF FF*
0,181,3:36.809.862,131.800 us,1 B,,SP,68,Read Transaction,05*
0,182,3:36.810.027,16.580.400 ms,5 B,,SP,5A,Write Transaction,FD 03 A1 AD B2
0,183,3:36.844.324,134.200 us,1 B,,SP,68,Read Transaction,05*
0,184,3:36.844.498,88.700 us,1 B,,SP,68,Write Transaction,06
0,185,3:36.844.706,4.927.600 ms,150 B,,SP,5A,Read Transaction,FD 03 AD 01 52 FF FF FF FF FF FF FF FF FF FF FF FF FF FF FF FF FF FF FF FF FF FF FF FF FF FF FF FF FF FF FF FF FF FF FF FF FF FF FF FF FF FF FF FF FF FF FF FF FF FF FF FF FF FF FF FF FF FF FF FF FF FF FF FF FF FF FF FF FF FF FF FF FF FF FF FF FF FF FF FF FF FF FF FF FF FF FF FF FF FF FF FF FF FF FF FF FF FF FF FF FF FF FF FF FF FF FF FF FF FF FF FF FF FF FF FF FF FF FF FF FF FF FF FF FF FF FF FF FF FF FF FF FF FF FF FF FF FF FF FF FF FF FF FF FF*
0,186,3:36.852.213,161.200 us,1 B,,SP,68,Read Transaction,06*
0,187,3:36.852.414,18.469.300 ms,5 B,,SP,5A,Write Transaction,FD 03 A1 AD B2
0,188,3:36.897.148,243.500 us,1 B,,SP,68,Read Transaction,06*
0,189,3:36.897.545,100.200 us,1 B,,SP,68,Write Transaction,07
0,190,3:36.897.813,5.008.200 ms,150 B,,SP,5A,Read Transaction,FD 03 AD 01 52 FF FF FF FF FF FF FF FF FF FF FF FF FF FF FF FF FF FF FF FF FF FF FF FF FF FF FF FF FF FF FF FF FF FF FF FF FF FF FF FF FF FF FF FF FF FF FF FF FF FF FF FF FF FF FF FF FF FF FF FF FF FF FF FF FF FF FF FF FF FF FF FF FF FF FF FF FF FF FF FF FF FF FF FF FF FF FF FF FF FF FF FF FF FF FF FF FF FF FF FF FF FF FF FF FF FF FF FF FF FF FF FF FF FF FF FF FF FF FF FF FF FF FF FF FF FF FF FF FF FF FF FF FF FF FF FF FF FF FF FF FF FF FF FF FF*
0,191,3:36.907.559,132.500 us,1 B,,SP,68,Read Transaction,07*
0,192,3:36.907.725,18.964.600 ms,5 B,,SP,5A,Write Transaction,FD 03 A1 AD B2
0,193,3:38.982.686,142.600 us,1 B,,SP,68,Read Transaction,07*
0,194,3:38.982.901,90.800 us,1 B,,SP,68,Write Transaction,01
0,195,3:38.983.711,123.700 us,1 B,,S,72,Write Transaction,03
0,196,3:38.983.834,136.400 us,1 B,,SP,72,Read Transaction,50*
0,197,3:38.986.468,225.900 us,1 B,,SP,68,Read Transaction,01*
0,198,3:38.986.751,161.600 us,1 B,,SP,68,Write Transaction,02
0,199,3:38.987.330,248.200 us,1 B,,S,72,Write Transaction,03
0,200,3:38.987.578,506.500 us,1 B,,SP,72,Read Transaction,50*
0,201,3:38.990.523,206.400 us,1 B,,SP,68,Read Transaction,02*
0,202,3:38.990.789,170.800 us,1 B,,SP,68,Write Transaction,03
0,203,3:38.991.147,134.600 us,1 B,,S,72,Write Transaction,03
0,204,3:38.991.282,173.700 us,1 B,,SP,72,Read Transaction,50*
0,205,3:39.017.379,1.058.300 ms,1 B,,SP,68,Read Transaction,03*
0,206,3:39.018.527,92.200 us,1 B,,SP,68,Write Transaction,04
0,207,3:39.018.743,121.500 us,1 B,,S,72,Write Transaction,03
0,208,3:39.018.864,207.900 us,1 B,,SP,72,Read Transaction,50*
0,209,3:39.054.870,13.639.900 ms,1 B,,SP,68,Read Transaction,04*
0,210,3:39.068.638,127.500 us,1 B,,SP,68,Write Transaction,05
0,211,3:39.068.916,130.600 us,1 B,,S,72,Write Transaction,03
0,212,3:39.069.046,160.700 us,1 B,,SP,72,Read Transaction,50*
0,213,3:39.074.060,267.600 us,1 B,,SP,68,Read Transaction,05*
0,214,3:39.074.385,89.000 us,1 B,,SP,68,Write Transaction,06
0,215,3:39.074.613,115.600 us,1 B,,S,72,Write Transaction,03
0,216,3:39.074.728,146.900 us,1 B,,SP,72,Read Transaction,50*
0,217,3:39.075.214,232.700 us,1 B,,SP,68,Read Transaction,06*
0,218,3:39.075.494,96.100 us,1 B,,SP,68,Write Transaction,01
0,219,3:39.075.725,158.000 us,1 B,,S,71,Write Transaction,00
0,220,3:39.075.883,172.300 us,1 B,,SP,71,Read Transaction,F3*
0,221,3:39.078.494,170.200 us,1 B,,SP,68,Read Transaction,01*
0,222,3:39.078.719,111.500 us,1 B,,SP,68,Write Transaction,07
0,223,3:39.078.967,123.900 us,1 B,,S,72,Write Transaction,03
0,224,3:39.079.090,140.600 us,1 B,,SP,72,Read Transaction,50*
0,225,3:39.082.436,172.200 us,1 B,,SP,68,Read Transaction,07*
0,226,3:39.082.709,119.100 us,1 B,,SP,68,Write Transaction,02
0,227,3:39.082.938,197.200 us,1 B,,SP,1B,Read Transaction,00*
0,228,3:39.084.685,302.800 us,1 B,,SP,1C,Read Transaction,FF*
0,229,3:39.086.194,117.800 us,1 B,,S,71,Write Transaction,00
0,230,3:39.086.311,165.200 us,1 B,,SP,71,Read Transaction,F3*
0,231,3:39.097.041,146.700 us,1 B,,SP,68,Read Transaction,02*
0,232,3:39.097.238,92.000 us,1 B,,SP,68,Write Transaction,03
0,233,3:39.097.684,164.400 us,1 B,,S,71,Write Transaction,00
0,234,3:39.097.848,151.500 us,1 B,,SP,71,Read Transaction,F3*
0,235,3:39.101.156,147.800 us,1 B,,SP,68,Read Transaction,03*
0,236,3:39.101.350,97.100 us,1 B,,SP,68,Write Transaction,04
0,237,3:39.101.710,1.047.200 ms,1 B,,S,71,Write Transaction,00
0,238,3:39.102.757,3.192.600 ms,1 B,,SP,71,Read Transaction,F3*
0,239,3:39.108.770,187.900 us,1 B,,SP,68,Read Transaction,04*
0,240,3:39.109.009,94.000 us,1 B,,SP,68,Write Transaction,05
0,241,3:39.109.268,130.100 us,1 B,,S,71,Write Transaction,00
0,242,3:39.109.399,400.500 us,1 B,,SP,71,Read Transaction,F3*
0,243,3:39.112.804,169.200 us,1 B,,SP,68,Read Transaction,05*
0,244,3:39.113.020,87.200 us,1 B,,SP,68,Write Transaction,06
0,245,3:39.114.050,137.100 us,1 B,,S,71,Write Transaction,00
0,246,3:39.114.187,149.600 us,1 B,,SP,71,Read Transaction,B3*
0,247,3:39.116.833,159.900 us,1 B,,SP,68,Read Transaction,06*
0,248,3:39.117.044,423.500 us,1 B,,SP,68,Write Transaction,07
0,249,3:39.117.674,123.400 us,1 B,,S,71,Write Transaction,00
0,250,3:39.117.797,195.900 us,1 B,,SP,71,Read Transaction,F3*
0,251,3:41.140.355,188.600 us,1 B,,SP,68,Read Transaction,07*
0,252,3:41.140.603,108.800 us,1 B,,SP,68,Write Transaction,01
0,253,3:41.140.841,122.400 us,1 B,,S,72,Write Transaction,03
0,254,3:41.140.963,216.100 us,1 B,,SP,72,Read Transaction,50*
0,255,3:41.144.011,872.300 us,1 B,,SP,68,Read Transaction,01*
0,256,3:41.144.946,951.700 us,1 B,,SP,68,Write Transaction,02
0,257,3:41.146.881,803.100 us,1 B,,S,72,Write Transaction,03
0,258,3:41.147.685,1.464.600 ms,1 B,,SP,72,Read Transaction,50*
0,259,3:41.152.161,236.500 us,1 B,,SP,68,Read Transaction,02*
0,260,3:41.152.453,90.400 us,1 B,,SP,68,Write Transaction,03
0,261,3:41.152.688,124.800 us,1 B,,S,72,Write Transaction,03
0,262,3:41.152.813,176.400 us,1 B,,SP,72,Read Transaction,50*
0,263,3:41.160.979,151.500 us,1 B,,SP,68,Read Transaction,03*
0,264,3:41.161.181,94.200 us,1 B,,SP,68,Write Transaction,04
0,265,3:41.161.428,121.900 us,1 B,,S,72,Write Transaction,03
0,266,3:41.161.550,173.000 us,1 B,,SP,72,Read Transaction,50*
0,267,3:41.169.083,167.000 us,1 B,,SP,68,Read Transaction,04*
0,268,3:41.169.297,134.200 us,1 B,,SP,68,Write Transaction,05
0,269,3:41.169.683,470.800 us,1 B,,S,72,Write Transaction,03
0,270,3:41.170.154,154.100 us,1 B,,SP,72,Read Transaction,50*
0,271,3:41.172.713,189.800 us,1 B,,SP,68,Read Transaction,05*
0,272,3:41.172.960,86.800 us,1 B,,SP,68,Write Transaction,06
0,273,3:41.173.163,145.400 us,1 B,,S,72,Write Transaction,03
0,274,3:41.173.308,139.200 us,1 B,,SP,72,Read Transaction,50*
0,275,3:41.180.377,198.200 us,1 B,,SP,68,Read Transaction,06*
0,276,3:41.180.631,89.700 us,1 B,,SP,68,Write Transaction,07
0,277,3:41.180.870,129.300 us,1 B,,S,72,Write Transaction,03
0,278,3:41.181.000,170.000 us,1 B,,SP,72,Read Transaction,50*
0,279,3:41.194.009,14.674.900 ms,1 B,,SP,1B,Read Transaction,00*
0,280,3:41.208.764,2.454.900 ms,1 B,,SP,1C,Read Transaction,FF*
0,281,3:43.231.626,157.300 us,1 B,,SP,68,Read Transaction,07*
0,282,3:43.231.833,87.800 us,1 B,,SP,68,Write Transaction,01
0,283,3:43.232.058,248.000 us,1 B,,S,72,Write Transaction,03
0,284,3:43.232.306,241.500 us,1 B,,SP,72,Read Transaction,50*
0,285,3:43.235.153,204.900 us,1 B,,SP,68,Read Transaction,01*
0,286,3:43.235.413,88.800 us,1 B,,SP,68,Write Transaction,02
0,287,3:43.235.640,158.900 us,1 B,,S,72,Write Transaction,03
0,288,3:43.235.798,179.600 us,1 B,,SP,72,Read Transaction,50*
0,289,3:43.251.071,177.700 us,1 B,,SP,68,Read Transaction,02*
0,290,3:43.251.306,103.500 us,1 B,,SP,68,Write Transaction,03
0,291,3:43.251.615,127.500 us,1 B,,S,72,Write Transaction,03
0,292,3:43.251.742,141.900 us,1 B,,SP,72,Read Transaction,50*
0,293,3:43.256.513,128.500 us,1 B,,SP,68,Read Transaction,03*
0,294,3:43.256.686,93.000 us,1 B,,SP,68,Write Transaction,04
0,295,3:43.256.899,128.500 us,1 B,,S,72,Write Transaction,03
0,296,3:43.257.027,137.100 us,1 B,,SP,72,Read Transaction,50*
0,297,3:43.261.892,366.200 us,1 B,,SP,68,Read Transaction,04*
0,298,3:43.262.353,139.500 us,1 B,,SP,68,Write Transaction,05
0,299,3:43.262.616,120.900 us,1 B,,S,72,Write Transaction,03
0,300,3:43.262.737,135.500 us,1 B,,SP,72,Read Transaction,50*
0,301,3:43.269.602,138.100 us,1 B,,SP,68,Read Transaction,05*
0,302,3:43.269.786,91.900 us,1 B,,SP,68,Write Transaction,06
0,303,3:43.270.004,134.400 us,1 B,,S,72,Write Transaction,03
0,304,3:43.270.138,173.900 us,1 B,,SP,72,Read Transaction,50*
0,305,3:43.277.036,159.600 us,1 B,,SP,68,Read Transaction,06*
0,306,3:43.277.246,89.600 us,1 B,,SP,68,Write Transaction,07
0,307,3:43.277.476,123.000 us,1 B,,S,72,Write Transaction,03
0,308,3:43.277.599,135.400 us,1 B,,SP,72,Read Transaction,50*
0,309,3:43.294.184,4.011.400 ms,1 B,,SP,1B,Read Transaction,00*
0,310,3:43.298.277,106.600 us,1 B,,SP,1C,Read Transaction,FF*
0,311,3:45.324.391,164.300 us,1 B,,SP,68,Read Transaction,07*
0,312,3:45.324.611,136.100 us,1 B,,SP,68,Write Transaction,01
0,313,3:45.324.872,118.100 us,1 B,,S,72,Write Transaction,03
0,314,3:45.324.990,132.400 us,1 B,,SP,72,Read Transaction,50*
0,315,3:45.327.600,138.900 us,1 B,,SP,68,Read Transaction,01*
0,316,3:45.327.784,119.200 us,1 B,,SP,68,Write Transaction,02
0,317,3:45.328.017,118.500 us,1 B,,S,72,Write Transaction,03
0,318,3:45.328.135,136.600 us,1 B,,SP,72,Read Transaction,50*
0,319,3:45.343.416,176.600 us,1 B,,SP,68,Read Transaction,02*
0,320,3:45.343.646,88.000 us,1 B,,SP,68,Write Transaction,03
0,321,3:45.343.862,122.200 us,1 B,,S,72,Write Transaction,03
0,322,3:45.343.984,137.200 us,1 B,,SP,72,Read Transaction,50*
0,323,3:45.346.578,311.000 us,1 B,,SP,68,Read Transaction,03*
0,324,3:45.346.985,132.200 us,1 B,,SP,68,Write Transaction,04
0,325,3:45.347.261,117.600 us,1 B,,S,72,Write Transaction,03
0,326,3:45.347.378,130.000 us,1 B,,SP,72,Read Transaction,50*
0,327,3:45.352.029,139.900 us,1 B,,SP,68,Read Transaction,04*
0,328,3:45.352.217,89.400 us,1 B,,SP,68,Write Transaction,05
0,329,3:45.352.438,139.100 us,1 B,,S,72,Write Transaction,03
0,330,3:45.352.577,169.500 us,1 B,,SP,72,Read Transaction,50*
0,331,3:45.357.277,156.200 us,1 B,,SP,68,Read Transaction,05*
0,332,3:45.357.483,87.200 us,1 B,,SP,68,Write Transaction,06
0,333,3:45.357.700,121.800 us,1 B,,S,72,Write Transaction,03
0,334,3:45.357.822,136.300 us,1 B,,SP,72,Read Transaction,50*
0,335,3:45.364.612,156.700 us,1 B,,SP,68,Read Transaction,06*
0,336,3:45.364.820,84.900 us,1 B,,SP,68,Write Transaction,07
0,337,3:45.365.066,126.600 us,1 B,,S,72,Write Transaction,03
0,338,3:45.365.192,170.000 us,1 B,,SP,72,Read Transaction,50*
0,339,3:45.385.154,9.446.500 ms,1 B,,SP,1B,Read Transaction,00*
0,340,3:45.394.749,651.200 us,1 B,,SP,1C,Read Transaction,FF*
0,341,3:47.435.121,197.100 us,1 B,,SP,68,Read Transaction,07*
0,342,3:47.435.367,90.700 us,1 B,,SP,68,Write Transaction,01
0,343,3:47.436.208,847.500 us,1 B,,S,72,Write Transaction,03
0,344,3:47.437.055,918.300 us,1 B,,SP,72,Read Transaction,50*
0,345,3:47.459.025,161.200 us,1 B,,SP,68,Read Transaction,01*
0,346,3:47.459.235,87.600 us,1 B,,SP,68,Write Transaction,02
0,347,3:47.459.457,118.800 us,1 B,,S,72,Write Transaction,03
0,348,3:47.459.576,130.600 us,1 B,,SP,72,Read Transaction,50*
0,349,3:47.466.329,136.600 us,1 B,,SP,68,Read Transaction,02*
0,350,3:47.466.510,305.100 us,1 B,,SP,68,Write Transaction,03
0,351,3:47.467.381,143.400 us,1 B,,S,72,Write Transaction,03
0,352,3:47.467.524,132.600 us,1 B,,SP,72,Read Transaction,50*
0,353,3:47.479.523,150.000 us,1 B,,SP,68,Read Transaction,03*
0,354,3:47.479.723,94.600 us,1 B,,SP,68,Write Transaction,04
0,355,3:47.479.962,130.300 us,1 B,,S,72,Write Transaction,03
0,356,3:47.480.092,142.800 us,1 B,,SP,72,Read Transaction,50*
0,357,3:47.486.888,7.788.000 ms,1 B,,SP,68,Read Transaction,04*
0,358,3:47.498.767,7.868.800 ms,1 B,,SP,68,Write Transaction,05
0,359,3:47.512.764,184.900 us,1 B,,S,72,Write Transaction,03
0,360,3:47.512.949,218.300 us,1 B,,SP,72,Read Transaction,50*
0,361,3:47.515.761,353.500 us,1 B,,SP,68,Read Transaction,05*
0,362,3:47.516.171,93.800 us,1 B,,SP,68,Write Transaction,06
0,363,3:47.516.562,162.600 us,1 B,,S,72,Write Transaction,03
0,364,3:47.516.724,485.000 us,1 B,,SP,72,Read Transaction,50*
0,365,3:47.520.026,321.100 us,1 B,,SP,68,Read Transaction,06*
0,366,3:47.520.399,152.200 us,1 B,,SP,68,Write Transaction,07
0,367,3:47.520.861,207.800 us,1 B,,S,72,Write Transaction,03
0,368,3:47.521.069,611.500 us,1 B,,SP,72,Read Transaction,50*
0,369,3:47.551.452,7.258.700 ms,1 B,,SP,1B,Read Transaction,00*
0,370,3:47.558.792,4.036.200 ms,1 B,,SP,1C,Read Transaction,FF*
0,371,3:50.027.641,202.700 us,1 B,,SP,19,Read Transaction,00*
0,372,3:50.027.891,144.700 us,1 B,,SP,1A,Read Transaction,00*
0,373,3:50.147.480,211.700 us,1 B,,SP,68,Read Transaction,07*
0,374,3:50.147.772,110.700 us,1 B,,SP,68,Write Transaction,01
0,375,3:50.148.012,118.300 us,1 B,,S,72,Write Transaction,03
0,376,3:50.148.131,128.900 us,1 B,,SP,72,Read Transaction,50*
0,377,3:50.150.781,370.000 us,1 B,,SP,68,Read Transaction,01*
0,378,3:50.151.217,92.100 us,1 B,,SP,68,Write Transaction,02
0,379,3:50.151.451,123.700 us,1 B,,S,72,Write Transaction,03
0,380,3:50.151.575,142.300 us,1 B,,SP,72,Read Transaction,50*
0,381,3:50.154.105,203.500 us,1 B,,SP,68,Read Transaction,02*
0,382,3:50.154.432,92.000 us,1 B,,SP,68,Write Transaction,03
0,383,3:50.154.661,124.800 us,1 B,,S,72,Write Transaction,03
0,384,3:50.154.786,243.500 us,1 B,,SP,72,Read Transaction,50*
0,385,3:50.158.536,153.300 us,1 B,,SP,68,Read Transaction,03*
0,386,3:50.158.745,89.700 us,1 B,,SP,68,Write Transaction,04
0,387,3:50.162.628,446.500 us,1 B,,S,72,Write Transaction,03
0,388,3:50.163.074,4.421.100 ms,1 B,,SP,72,Read Transaction,50*
0,389,3:50.169.743,1.664.300 ms,1 B,,SP,68,Read Transaction,04*
0,390,3:50.171.507,95.300 us,1 B,,SP,68,Write Transaction,05
0,391,3:50.171.745,120.200 us,1 B,,S,72,Write Transaction,03
0,392,3:50.171.866,130.000 us,1 B,,SP,72,Read Transaction,50*
0,393,3:50.183.365,2.919.000 ms,1 B,,SP,68,Read Transaction,05*
0,394,3:50.189.699,817.800 us,1 B,,SP,68,Write Transaction,06
0,395,3:50.191.252,112.400 us,1 B,,S,72,Write Transaction,03
0,396,3:50.191.364,162.800 us,1 B,,SP,72,Read Transaction,50*
0,397,3:50.194.182,812.800 us,1 B,,SP,68,Read Transaction,06*
0,398,3:50.197.691,92.300 us,1 B,,SP,68,Write Transaction,07
0,399,3:50.197.958,114.300 us,1 B,,S,72,Write Transaction,03
0,400,3:50.198.072,150.900 us,1 B,,SP,72,Read Transaction,50*
0,401,3:50.200.245,109.900 us,1 B,,SP,1B,Read Transaction,00*
0,402,3:50.200.387,160.300 us,1 B,,SP,1C,Read Transaction,FF*
0,403,3:52.312.318,4.280.500 ms,1 B,,SP,68,Read Transaction,07*
0,404,3:52.316.696,101.400 us,1 B,,SP,68,Write Transaction,01
0,405,3:52.316.937,121.500 us,1 B,,S,72,Write Transaction,03
0,406,3:52.317.058,135.200 us,1 B,,SP,72,Read Transaction,50*
0,407,3:52.323.480,145.000 us,1 B,,SP,68,Read Transaction,01*
0,408,3:52.323.671,87.900 us,1 B,,SP,68,Write Transaction,02
0,409,3:52.323.901,122.400 us,1 B,,S,72,Write Transaction,03
0,410,3:52.324.023,136.300 us,1 B,,SP,72,Read Transaction,50*
0,411,3:52.344.123,128.300 us,1 B,,SP,68,Read Transaction,02*
0,412,3:52.344.291,86.500 us,1 B,,SP,68,Write Transaction,03
0,413,3:52.344.612,129.000 us,1 B,,S,72,Write Transaction,03
0,414,3:52.344.741,132.400 us,1 B,,SP,72,Read Transaction,50*
0,415,3:52.347.480,146.800 us,1 B,,SP,68,Read Transaction,03*
0,416,3:52.347.672,88.100 us,1 B,,SP,68,Write Transaction,04
0,417,3:52.347.896,119.600 us,1 B,,S,72,Write Transaction,03
0,418,3:52.348.016,134.300 us,1 B,,SP,72,Read Transaction,50*
0,419,3:52.394.885,142.800 us,1 B,,SP,68,Read Transaction,04*
0,420,3:52.395.079,129.900 us,1 B,,SP,68,Write Transaction,05
0,421,3:52.395.340,122.700 us,1 B,,S,72,Write Transaction,03
0,422,3:52.395.463,136.900 us,1 B,,SP,72,Read Transaction,50*
0,423,3:52.398.058,323.200 us,1 B,,SP,68,Read Transaction,05*
0,424,3:52.398.440,91.000 us,1 B,,SP,68,Write Transaction,06
0,425,3:52.398.655,120.400 us,1 B,,S,72,Write Transaction,03
0,426,3:52.398.776,134.600 us,1 B,,SP,72,Read Transaction,50*
0,427,3:52.401.360,301.000 us,1 B,,SP,68,Read Transaction,06*
0,428,3:52.401.721,90.300 us,1 B,,SP,68,Write Transaction,07
0,429,3:52.401.938,120.700 us,1 B,,S,72,Write Transaction,03
0,430,3:52.402.059,206.400 us,1 B,,SP,72,Read Transaction,50*
0,431,3:52.424.605,12.185.700 ms,1 B,,SP,1B,Read Transaction,00*
0,432,3:52.436.878,838.300 us,1 B,,SP,1C,Read Transaction,FF*
0,433,3:54.506.726,135.600 us,1 B,,SP,68,Read Transaction,07*
0,434,3:54.506.908,90.500 us,1 B,,SP,68,Write Transaction,01
0,435,3:54.507.124,116.100 us,1 B,,S,72,Write Transaction,03
0,436,3:54.507.240,128.400 us,1 B,,SP,72,Read Transaction,50*
0,437,3:54.515.292,427.600 us,1 B,,SP,68,Read Transaction,01*
0,438,3:54.515.795,89.900 us,1 B,,SP,68,Write Transaction,02
0,439,3:54.516.024,121.600 us,1 B,,S,72,Write Transaction,03
0,440,3:54.516.145,296.700 us,1 B,,SP,72,Read Transaction,50*
0,441,3:54.523.738,137.700 us,1 B,,SP,68,Read Transaction,02*
0,442,3:54.523.923,86.900 us,1 B,,SP,68,Write Transaction,03
0,443,3:54.524.181,120.400 us,1 B,,S,72,Write Transaction,03
0,444,3:54.524.302,131.600 us,1 B,,SP,72,Read Transaction,50*
0,445,3:54.529.189,614.400 us,1 B,,SP,68,Read Transaction,03*
0,446,3:54.529.884,139.400 us,1 B,,SP,68,Write Transaction,04
0,447,3:54.530.184,138.900 us,1 B,,S,72,Write Transaction,03
0,448,3:54.530.323,143.400 us,1 B,,SP,72,Read Transaction,50*
0,449,3:54.533.023,170.100 us,1 B,,SP,68,Read Transaction,04*
0,450,3:54.533.244,101.100 us,1 B,,SP,68,Write Transaction,05
0,451,3:54.533.509,135.200 us,1 B,,S,72,Write Transaction,03
0,452,3:54.533.645,158.100 us,1 B,,SP,72,Read Transaction,50*
0,453,3:54.550.790,844.700 us,1 B,,SP,68,Read Transaction,05*
0,454,3:54.551.699,94.800 us,1 B,,SP,68,Write Transaction,06
0,455,3:54.551.926,116.900 us,1 B,,S,72,Write Transaction,03
0,456,3:54.552.043,130.800 us,1 B,,SP,72,Read Transaction,50*
0,457,3:54.558.989,147.200 us,1 B,,SP,68,Read Transaction,06*
0,458,3:54.559.189,89.300 us,1 B,,SP,68,Write Transaction,07
0,459,3:54.559.635,156.700 us,1 B,,S,72,Write Transaction,03
0,460,3:54.559.792,171.100 us,1 B,,SP,72,Read Transaction,50*
0,461,3:54.576.118,136.200 us,1 B,,SP,1B,Read Transaction,00*
0,462,3:54.576.292,109.700 us,1 B,,SP,1C,Read Transaction,FF*
0,463,4:17.201.907,239.700 us,1 B,,SP,68,Read Transaction,07*
0,464,4:17.202.276,96.400 us,1 B,,SP,68,Write Transaction,01
0,465,4:17.202.511,123.500 us,1 B,,S,72,Write Transaction,03
0,466,4:17.202.634,177.100 us,1 B,,SP,72,Read Transaction,50*
0,467,4:17.217.606,563.900 us,1 B,,SP,68,Read Transaction,01*
0,468,4:17.218.459,104.100 us,1 B,,SP,68,Write Transaction,02
0,469,4:17.218.696,121.100 us,1 B,,S,72,Write Transaction,03
0,470,4:17.218.817,140.700 us,1 B,,SP,72,Read Transaction,50*
0,471,4:17.225.691,138.600 us,1 B,,SP,68,Read Transaction,02*
0,472,4:17.225.872,113.300 us,1 B,,SP,68,Write Transaction,03
0,473,4:17.226.344,148.500 us,1 B,,S,72,Write Transaction,03
0,474,4:17.226.493,136.100 us,1 B,,SP,72,Read Transaction,50*
0,475,4:17.233.296,169.600 us,1 B,,SP,68,Read Transaction,03*
0,476,4:17.233.519,88.000 us,1 B,,SP,68,Write Transaction,04
0,477,4:17.233.729,119.300 us,1 B,,S,72,Write Transaction,03
0,478,4:17.233.849,134.600 us,1 B,,SP,72,Read Transaction,50*
0,479,4:17.236.712,182.600 us,1 B,,SP,68,Read Transaction,04*
0,480,4:17.236.950,87.000 us,1 B,,SP,68,Write Transaction,05
0,481,4:17.237.155,119.900 us,1 B,,S,72,Write Transaction,03
0,482,4:17.237.275,134.300 us,1 B,,SP,72,Read Transaction,50*
0,483,4:17.244.154,185.600 us,1 B,,SP,68,Read Transaction,05*
0,484,4:17.244.399,104.200 us,1 B,,SP,68,Write Transaction,06
0,485,4:17.244.701,187.900 us,1 B,,S,72,Write Transaction,03
0,486,4:17.244.889,582.000 us,1 B,,SP,72,Read Transaction,50*
0,487,4:17.250.255,142.700 us,1 B,,SP,68,Read Transaction,06*
0,488,4:17.250.451,155.500 us,1 B,,SP,68,Write Transaction,07
0,489,4:17.250.771,131.300 us,1 B,,S,72,Write Transaction,03
0,490,4:17.250.902,157.700 us,1 B,,SP,72,Read Transaction,50*
0,491,4:17.258.436,3.803.300 ms,1 B,,SP,1B,Read Transaction,00*
0,492,4:17.262.315,166.000 us,1 B,,SP,1C,Read Transaction,FF*
0,493,4:17.373.718,1.752.300 ms,1 B,,SP,68,Read Transaction,07*
0,494,4:17.375.569,101.000 us,1 B,,SP,68,Write Transaction,01
0,495,4:17.375.810,19.930.300 ms,4 B,,SP,5A,Write Transaction,FD 02 31 CF
0,496,4:17.419.266,1.870.500 ms,1 B,,SP,68,Read Transaction,01*
0,497,4:17.421.249,96.200 us,1 B,,SP,68,Write Transaction,02
0,498,4:17.421.468,20.801.100 ms,4 B,,SP,5A,Write Transaction,FD 02 31 CF
0,499,4:17.461.362,1.986.700 ms,1 B,,SP,68,Read Transaction,02*
0,500,4:17.463.477,144.800 us,1 B,,SP,68,Write Transaction,03
0,501,4:17.463.754,17.403.500 ms,4 B,,SP,5A,Write Transaction,FD 02 31 CF
0,502,4:17.505.182,1.212.100 ms,1 B,,SP,68,Read Transaction,03*
0,503,4:17.506.484,724.700 us,1 B,,SP,68,Write Transaction,04
0,504,4:17.507.405,233.200 us,4 B,,SP,5A,Write Transaction,FD 02 31 CF
0,505,4:17.524.097,1.844.400 ms,1 B,,SP,68,Read Transaction,04*
0,506,4:17.526.040,147.700 us,1 B,,SP,68,Write Transaction,05
0,507,4:17.526.394,226.200 us,4 B,,SP,5A,Write Transaction,FD 02 31 CF
0,508,4:17.542.695,2.327.100 ms,1 B,,SP,68,Read Transaction,05*
0,509,4:17.545.111,93.600 us,1 B,,SP,68,Write Transaction,06
0,510,4:17.545.338,19.340.000 ms,4 B,,SP,5A,Write Transaction,FD 02 31 CF
0,511,4:17.580.770,2.322.600 ms,1 B,,SP,68,Read Transaction,06*
0,512,4:17.583.192,106.100 us,1 B,,SP,68,Write Transaction,07
0,513,4:17.583.436,224.200 us,4 B,,SP,5A,Write Transaction,FD 02 31 CF
0,514,4:19.651.551,352.200 us,1 B,,SP,68,Read Transaction,07*
0,515,4:19.651.980,133.500 us,1 B,,SP,68,Write Transaction,01
0,516,4:19.652.273,140.900 us,1 B,,S,72,Write Transaction,03
0,517,4:19.652.414,144.500 us,1 B,,SP,72,Read Transaction,50*
0,518,4:19.655.034,142.900 us,1 B,,SP,68,Read Transaction,01*
0,519,4:19.655.225,227.900 us,1 B,,SP,68,Write Transaction,02
0,520,4:19.655.596,122.300 us,1 B,,S,72,Write Transaction,03
0,521,4:19.655.719,134.700 us,1 B,,SP,72,Read Transaction,50*
0,522,4:19.658.773,387.000 us,1 B,,SP,68,Read Transaction,02*
0,523,4:19.659.265,140.800 us,1 B,,SP,68,Write Transaction,03
0,524,4:19.659.537,122.200 us,1 B,,S,72,Write Transaction,03
0,525,4:19.659.659,163.300 us,1 B,,SP,72,Read Transaction,50*
0,526,4:19.662.222,220.300 us,1 B,,SP,68,Read Transaction,03*
0,527,4:19.662.567,793.700 us,1 B,,SP,68,Write Transaction,04
0,528,4:19.664.095,808.300 us,1 B,,S,72,Write Transaction,03
0,529,4:19.664.903,1.641.200 ms,1 B,,SP,72,Read Transaction,50*
0,530,4:19.669.045,139.300 us,1 B,,SP,68,Read Transaction,04*
0,531,4:19.669.228,92.000 us,1 B,,SP,68,Write Transaction,05
0,532,4:19.669.510,123.100 us,1 B,,S,72,Write Transaction,03
0,533,4:19.669.633,132.900 us,1 B,,SP,72,Read Transaction,50*
0,534,4:19.676.492,136.500 us,1 B,,SP,68,Read Transaction,05*
0,535,4:19.676.694,162.900 us,1 B,,SP,68,Write Transaction,06
0,536,4:19.677.016,126.300 us,1 B,,S,72,Write Transaction,03
0,537,4:19.677.143,140.200 us,1 B,,SP,72,Read Transaction,50*
0,538,4:19.681.836,149.200 us,1 B,,SP,68,Read Transaction,06*
0,539,4:19.682.039,89.200 us,1 B,,SP,68,Write Transaction,07
0,540,4:19.682.276,169.100 us,1 B,,S,72,Write Transaction,03
0,541,4:19.682.445,305.100 us,1 B,,SP,72,Read Transaction,50*
0,542,4:19.684.297,106.100 us,1 B,,SP,1B,Read Transaction,7F*
0,543,4:19.684.432,105.100 us,1 B,,SP,1C,Read Transaction,80*
0,544,4:20.134.284,13.540.400 ms,1 B,,SP,68,Read Transaction,07*
0,545,4:20.147.929,988.700 us,1 B,,SP,68,Write Transaction,01
0,546,4:20.150.548,6.287.800 ms,150 B,,SP,5A,Read Transaction,FD 37 31 00 00 00 31 00 01 61 BA 18 8A BF 54 11 E0 A5 B8 5C F3 FC 5E 9D D0 0A 01 00 00 00 00 00 00 00 00 00 00 00 00 00 00 00 00 88 8A 99 38 00 00 00 00 00 B1 63 28 53 EC FF FF FF FF FF FF FF FF FF FF FF FF FF FF FF FF FF FF FF FF FF FF FF FF FF FF FF FF FF FF FF FF FF FF FF FF FF FF FF FF FF FF FF FF FF FF FF FF FF FF FF FF FF FF FF FF FF FF FF FF FF FF FF FF FF FF FF FF FF FF FF FF FF FF FF FF FF FF FF FF FF FF FF FF FF FF FF FF FF FF FF FF FF*
0,547,4:20.165.564,527.400 us,1 B,,SP,68,Read Transaction,01*
0,548,4:20.166.185,19.579.500 ms,5 B,,SP,5A,Write Transaction,FD 03 A1 31 2E
0,549,4:20.202.899,3.675.000 ms,1 B,,SP,68,Read Transaction,01*
0,550,4:20.206.666,1.637.300 ms,1 B,,SP,68,Write Transaction,02
0,551,4:20.211.239,5.486.300 ms,150 B,,SP,5A,Read Transaction,FD 37 31 00 00 00 31 00 01 46 07 4A F0 BF 53 11 E0 92 F3 5C F3 FC 5E 94 50 0A 01 00 00 00 00 00 00 00 00 00 00 00 00 00 00 00 00 00 00 00 00 00 00 00 00 00 91 11 21 A8 8B FF FF FF FF FF FF FF FF FF FF FF FF FF FF FF FF FF FF FF FF FF FF FF FF FF FF FF FF FF FF FF FF FF FF FF FF FF FF FF FF FF FF FF FF FF FF FF FF FF FF FF FF FF FF FF FF FF FF FF FF FF FF FF FF FF FF FF FF FF FF FF FF FF FF FF FF FF FF FF FF FF FF FF FF FF FF FF FF FF FF FF FF FF*
0,552,4:20.221.457,142.200 us,1 B,,SP,68,Read Transaction,02*
0,553,4:20.221.645,20.173.300 ms,5 B,,SP,5A,Write Transaction,FD 03 A1 31 2E
0,554,4:20.266.035,284.700 us,1 B,,SP,68,Read Transaction,02*
0,555,4:20.266.391,966.300 us,1 B,,SP,68,Write Transaction,03
0,556,4:20.267.755,7.235.300 ms,150 B,,SP,5A,Read Transaction,FD 37 31 00 00 00 31 00 01 3A 46 07 D4 BF 78 11 E0 91 76 5C F3 FC 5E 99 00 0A 01 00 00 00 00 00 00 00 00 00 00 00 00 00 00 00 00 66 8A 99 38 00 00 00 00 00 F8 BF 02 30 1C FF FF FF FF FF FF FF FF FF FF FF FF FF FF FF FF FF FF FF FF FF FF FF FF FF FF FF FF FF FF FF FF FF FF FF FF FF FF FF FF FF FF FF FF FF FF FF FF FF FF FF FF FF FF FF FF FF FF FF FF FF FF FF FF FF FF FF FF FF FF FF FF FF FF FF FF FF FF FF FF FF FF FF FF FF FF FF FF FF FF FF FF FF*
0,557,4:20.282.902,2.369.500 ms,1 B,,SP,68,Read Transaction,03*
0,558,4:20.285.624,21.658.900 ms,5 B,,SP,5A,Write Transaction,FD 03 A1 31 2E
0,559,4:20.337.288,1.513.200 ms,1 B,,SP,68,Read Transaction,03*
0,560,4:20.338.899,557.600 us,1 B,,SP,68,Write Transaction,04
0,561,4:20.341.763,24.152.500 ms,150 B,,SP,5A,Read Transaction,FD 37 31 00 00 00 31 00 01 EB 2B E8 40 BF 32 11 E0 AF CB 5C F3 FC 5E 94 18 0A 01 00 00 00 00 00 00 00 00 00 00 00 00 00 00 00 00 46 8A 99 38 00 00 00 00 00 70 F7 BB 2E B2 FF FF FF FF FF FF FF FF FF FF FF FF FF FF FF FF FF FF FF FF FF FF FF FF FF FF FF FF FF FF FF FF FF FF FF FF FF FF FF FF FF FF FF FF FF FF FF FF FF FF FF FF FF FF FF FF FF FF FF FF FF FF FF FF FF FF FF FF FF FF FF FF FF FF FF FF FF FF FF FF FF FF FF FF FF FF FF FF FF FF FF FF FF*
0,562,4:20.440.319,6.292.500 ms,1 B,,SP,68,Read Transaction,04*
0,563,4:20.447.655,4.045.600 ms,5 B,,SP,5A,Write Transaction,FD 03 A1 31 2E
0,564,4:20.495.675,3.633.500 ms,1 B,,SP,68,Read Transaction,04*
0,565,4:20.499.412,776.100 us,1 B,,SP,68,Write Transaction,05
0,566,4:20.500.425,5.847.100 ms,150 B,,SP,5A,Read Transaction,FD 37 31 00 00 00 31 00 01 97 DB 3E E8 BF 85 11 E0 91 38 5C F3 FC 5E 9A E0 0A 01 00 00 00 00 00 00 00 00 00 00 00 00 00 00 00 00 00 00 00 00 00 00 00 00 00 9E 20 EA AB 86 FF FF FF FF FF FF FF FF FF FF FF FF FF FF FF FF FF FF FF FF FF FF FF FF FF FF FF FF FF FF FF FF FF FF FF FF FF FF FF FF FF FF FF FF FF FF FF FF FF FF FF FF FF FF FF FF FF FF FF FF FF FF FF FF FF FF FF FF FF FF FF FF FF FF FF FF FF FF FF FF FF FF FF FF FF FF FF FF FF FF FF FF FF*
0,567,4:20.563.847,9.126.600 ms,1 B,,SP,68,Read Transaction,05*
0,568,4:20.573.119,907.500 us,5 B,,SP,5A,Write Transaction,FD 03 A1 31 2E
0,569,4:20.619.406,3.282.800 ms,1 B,,SP,68,Read Transaction,05*
0,570,4:20.626.642,23.377.700 ms,1 B,,SP,68,Write Transaction,06
0,571,4:20.657.147,9.564.100 ms,150 B,,SP,5A,Read Transaction,FD 37 31 00 00 00 31 00 01 92 C4 CD F1 B4 98 11 E0 84 B1 FF 93 F8 1B 01 DE 0A 01 00 00 00 00 00 00 00 00 00 00 00 00 00 00 00 00 8F 8A 99 38 00 00 00 00 00 A1 4D C7 72 77 FF FF FF FF FF FF FF FF FF FF FF FF FF FF FF FF FF FF FF FF FF FF FF FF FF FF FF FF FF FF FF FF FF FF FF FF FF FF FF FF FF FF FF FF FF FF FF FF FF FF FF FF FF FF FF FF FF FF FF FF FF FF FF FF FF FF FF FF FF FF FF FF FF FF FF FF FF FF FF FF FF FF FF FF FF FF FF FF FF FF FF FF FF*
0,572,4:20.669.950,161.500 us,1 B,,SP,68,Read Transaction,06*
0,573,4:20.670.161,19.019.000 ms,5 B,,SP,5A,Write Transaction,FD 03 A1 31 2E
0,574,4:20.705.490,349.700 us,1 B,,SP,68,Read Transaction,06*
0,575,4:20.705.909,90.400 us,1 B,,SP,68,Write Transaction,07
0,576,4:20.706.129,4.969.000 ms,150 B,,SP,5A,Read Transaction,FD 37 31 00 00 00 31 00 01 43 03 49 CC BF 70 11 E0 83 10 5C F3 FC 5E 9F A0 0A 01 00 00 00 00 00 00 00 00 00 00 00 00 00 00 00 00 A5 8A 99 38 00 00 00 00 00 E4 ED 73 B5 A3 FF FF FF FF FF FF FF FF FF FF FF FF FF FF FF FF FF FF FF FF FF FF FF FF FF FF FF FF FF FF FF FF FF FF FF FF FF FF FF FF FF FF FF FF FF FF FF FF FF FF FF FF FF FF FF FF FF FF FF FF FF FF FF FF FF FF FF FF FF FF FF FF FF FF FF FF FF FF FF FF FF FF FF FF FF FF FF FF FF FF FF FF FF*
0,577,4:20.713.722,219.900 us,1 B,,SP,68,Read Transaction,07*
0,578,4:20.713.992,657.300 us,5 B,,SP,5A,Write Transaction,FD 03 A1 31 2E
0,579,4:22.809.590,1.349.100 ms,1 B,,SP,68,Read Transaction,07*
0,580,4:22.811.758,91.900 us,1 B,,SP,68,Write Transaction,01
0,581,4:22.811.995,121.200 us,1 B,,S,72,Write Transaction,03
0,582,4:22.812.116,135.300 us,1 B,,SP,72,Read Transaction,50*
0,583,4:22.820.829,204.800 us,1 B,,SP,68,Read Transaction,01*
0,584,4:22.821.091,126.800 us,1 B,,SP,68,Write Transaction,02
0,585,4:22.821.354,120.500 us,1 B,,S,72,Write Transaction,03
0,586,4:22.821.475,224.300 us,1 B,,SP,72,Read Transaction,50*
0,587,4:22.824.958,292.900 us,1 B,,SP,68,Read Transaction,02*
0,588,4:22.825.317,169.900 us,1 B,,SP,68,Write Transaction,03
0,589,4:22.825.622,127.300 us,1 B,,S,72,Write Transaction,03
0,590,4:22.825.749,140.200 us,1 B,,SP,72,Read Transaction,50*
0,591,4:22.828.848,147.500 us,1 B,,SP,68,Read Transaction,03*
0,592,4:22.829.041,93.000 us,1 B,,SP,68,Write Transaction,04
0,593,4:22.829.274,166.200 us,1 B,,S,72,Write Transaction,03
0,594,4:22.829.440,146.100 us,1 B,,SP,72,Read Transaction,50*
0,595,4:22.832.777,788.600 us,1 B,,SP,68,Read Transaction,04*
0,596,4:22.833.752,160.000 us,1 B,,SP,68,Write Transaction,05
0,597,4:22.834.060,127.100 us,1 B,,S,72,Write Transaction,03
0,598,4:22.834.188,180.200 us,1 B,,SP,72,Read Transaction,50*
0,599,4:22.836.986,192.000 us,1 B,,SP,68,Read Transaction,05*
0,600,4:22.837.235,98.300 us,1 B,,SP,68,Write Transaction,06
0,601,4:22.837.517,126.700 us,1 B,,S,72,Write Transaction,03
0,602,4:22.837.644,161.000 us,1 B,,SP,72,Read Transaction,50*
0,603,4:22.842.459,172.500 us,1 B,,SP,68,Read Transaction,06*
0,604,4:22.842.685,251.800 us,1 B,,SP,68,Write Transaction,07
0,605,4:22.843.308,230.100 us,1 B,,S,72,Write Transaction,03
0,606,4:22.843.538,142.300 us,1 B,,SP,72,Read Transaction,50*
0,607,4:22.870.953,127.700 us,1 B,,SP,1B,Read Transaction,00*
0,608,4:22.871.119,116.700 us,1 B,,SP,1C,Read Transaction,FF*
0,609,4:24.906.399,144.100 us,1 B,,SP,68,Read Transaction,07*
0,610,4:24.906.593,92.400 us,1 B,,SP,68,Write Transaction,01
0,611,4:24.906.825,309.200 us,1 B,,S,72,Write Transaction,03
0,612,4:24.907.134,1.649.200 ms,1 B,,SP,72,Read Transaction,50*
0,613,4:24.913.705,176.300 us,1 B,,SP,68,Read Transaction,01*
0,614,4:24.913.955,135.800 us,1 B,,SP,68,Write Transaction,02
0,615,4:24.914.236,136.000 us,1 B,,S,72,Write Transaction,03
0,616,4:24.914.372,396.900 us,1 B,,SP,72,Read Transaction,50*
0,617,4:24.917.403,151.500 us,1 B,,SP,68,Read Transaction,02*
0,618,4:24.917.599,93.300 us,1 B,,SP,68,Write Transaction,03
0,619,4:24.917.829,121.900 us,1 B,,S,72,Write Transaction,03
0,620,4:24.917.951,137.100 us,1 B,,SP,72,Read Transaction,50*
0,621,4:24.920.914,151.400 us,1 B,,SP,68,Read Transaction,03*
0,622,4:24.921.113,93.300 us,1 B,,SP,68,Write Transaction,04
0,623,4:24.921.337,117.600 us,1 B,,S,72,Write Transaction,03
0,624,4:24.921.455,133.400 us,1 B,,SP,72,Read Transaction,50*
0,625,4:24.925.377,293.400 us,1 B,,SP,68,Read Transaction,04*
0,626,4:24.925.734,89.900 us,1 B,,SP,68,Write Transaction,05
0,627,4:24.925.994,144.000 us,1 B,,S,72,Write Transaction,03
0,628,4:24.926.138,352.600 us,1 B,,SP,72,Read Transaction,50*
0,629,4:24.928.971,162.400 us,1 B,,SP,68,Read Transaction,05*
0,630,4:24.929.189,94.100 us,1 B,,SP,68,Write Transaction,06
0,631,4:24.929.411,121.400 us,1 B,,S,72,Write Transaction,03
0,632,4:24.929.532,139.000 us,1 B,,SP,72,Read Transaction,50*
0,633,4:24.933.016,873.800 us,1 B,,SP,68,Read Transaction,06*
0,634,4:24.933.950,989.100 us,1 B,,SP,68,Write Transaction,07
0,635,4:24.936.085,803.700 us,1 B,,S,72,Write Transaction,03
0,636,4:24.936.889,1.404.800 ms,1 B,,SP,72,Read Transaction,50*
0,637,4:24.953.149,5.985.200 ms,1 B,,SP,1B,Read Transaction,00*
0,638,4:24.959.217,7.917.500 ms,1 B,,SP,1C,Read Transaction,FF*
0,639,4:27.010.388,136.800 us,1 B,,SP,68,Read Transaction,07*
0,640,4:27.010.566,233.300 us,1 B,,SP,68,Write Transaction,01
0,641,4:27.010.938,122.500 us,1 B,,S,72,Write Transaction,03
0,642,4:27.011.061,130.200 us,1 B,,SP,72,Read Transaction,50*
0,643,4:27.019.861,3.592.300 ms,1 B,,SP,68,Read Transaction,01*
0,644,4:27.023.543,175.200 us,1 B,,SP,68,Write Transaction,02
0,645,4:27.023.862,126.000 us,1 B,,S,72,Write Transaction,03
0,646,4:27.023.988,472.900 us,1 B,,SP,72,Read Transaction,50*
0,647,4:27.044.987,178.200 us,1 B,,SP,68,Read Transaction,02*
0,648,4:27.045.228,93.200 us,1 B,,SP,68,Write Transaction,03
0,649,4:27.045.446,186.600 us,1 B,,S,72,Write Transaction,03
0,650,4:27.045.632,142.200 us,1 B,,SP,72,Read Transaction,50*
0,651,4:27.050.301,163.100 us,1 B,,SP,68,Read Transaction,03*
0,652,4:27.050.512,87.100 us,1 B,,SP,68,Write Transaction,04
0,653,4:27.050.730,121.500 us,1 B,,S,72,Write Transaction,03
0,654,4:27.050.852,134.700 us,1 B,,SP,72,Read Transaction,50*
0,655,4:27.055.640,146.700 us,1 B,,SP,68,Read Transaction,04*
0,656,4:27.055.835,89.700 us,1 B,,SP,68,Write Transaction,05
0,657,4:27.056.079,124.700 us,1 B,,S,72,Write Transaction,03
0,658,4:27.056.204,193.200 us,1 B,,SP,72,Read Transaction,50*
0,659,4:27.089.034,10.363.100 ms,1 B,,SP,68,Read Transaction,05*
0,660,4:27.099.489,3.082.400 ms,1 B,,SP,68,Write Transaction,06
0,661,4:27.102.902,489.400 us,1 B,,S,72,Write Transaction,03
0,662,4:27.103.392,4.060.900 ms,1 B,,SP,72,Read Transaction,50*
0,663,4:27.142.352,137.000 us,1 B,,SP,68,Read Transaction,06*
0,664,4:27.142.536,85.300 us,1 B,,SP,68,Write Transaction,07
0,665,4:27.142.860,122.000 us,1 B,,S,72,Write Transaction,03
0,666,4:27.142.982,130.700 us,1 B,,SP,72,Read Transaction,50*
0,667,4:27.163.558,12.382.500 ms,1 B,,SP,1B,Read Transaction,00*
0,668,4:27.176.101,1.036.000 ms,1 B,,SP,1C,Read Transaction,FF*
0,669,4:29.260.952,246.000 us,1 B,,SP,68,Read Transaction,07*
0,670,4:29.261.257,103.100 us,1 B,,SP,68,Write Transaction,01
0,671,4:29.261.498,142.700 us,1 B,,S,72,Write Transaction,03
0,672,4:29.261.640,266.900 us,1 B,,SP,72,Read Transaction,50*
0,673,4:29.294.562,144.600 us,1 B,,SP,68,Read Transaction,01*
0,674,4:29.294.755,97.900 us,1 B,,SP,68,Write Transaction,02
0,675,4:29.294.994,1.057.600 ms,1 B,,S,72,Write Transaction,03
0,676,4:29.296.051,162.400 us,1 B,,SP,72,Read Transaction,50*
0,677,4:29.298.619,188.900 us,1 B,,SP,68,Read Transaction,02*
0,678,4:29.298.864,98.200 us,1 B,,SP,68,Write Transaction,03
0,679,4:29.299.105,142.200 us,1 B,,S,72,Write Transaction,03
0,680,4:29.299.248,145.700 us,1 B,,SP,72,Read Transaction,50*
0,681,4:29.302.248,3.843.000 ms,1 B,,SP,68,Read Transaction,03*
0,682,4:29.306.196,1.383.200 ms,1 B,,SP,68,Write Transaction,04
0,683,4:29.316.714,197.400 us,1 B,,S,72,Write Transaction,03
0,684,4:29.316.912,2.863.800 ms,1 B,,SP,72,Read Transaction,50*
0,685,4:29.332.106,3.686.100 ms,1 B,,SP,68,Read Transaction,04*
0,686,4:29.335.901,453.100 us,1 B,,SP,68,Write Transaction,05
0,687,4:29.336.571,139.200 us,1 B,,S,72,Write Transaction,03
0,688,4:29.336.710,148.700 us,1 B,,SP,72,Read Transaction,50*
0,689,4:29.339.424,362.000 us,1 B,,SP,68,Read Transaction,05*
0,690,4:29.339.863,108.200 us,1 B,,SP,68,Write Transaction,06
0,691,4:29.340.800,130.700 us,1 B,,S,72,Write Transaction,03
0,692,4:29.340.931,1.515.700 ms,1 B,,SP,72,Read Transaction,50*
0,693,4:29.345.016,145.900 us,1 B,,SP,68,Read Transaction,06*
0,694,4:29.345.211,100.800 us,1 B,,SP,68,Write Transaction,07
0,695,4:29.345.464,127.500 us,1 B,,S,72,Write Transaction,03
0,696,4:29.345.591,161.700 us,1 B,,SP,72,Read Transaction,50*
0,697,4:29.347.312,516.600 us,1 B,,SP,1B,Read Transaction,00*
0,698,4:29.347.904,196.000 us,1 B,,SP,1C,Read Transaction,FF*
0,699,4:31.386.178,217.400 us,1 B,,SP,68,Read Transaction,07*
0,700,4:31.386.445,86.400 us,1 B,,SP,68,Write Transaction,01
0,701,4:31.386.686,126.100 us,1 B,,S,72,Write Transaction,03
0,702,4:31.386.813,147.100 us,1 B,,SP,72,Read Transaction,50*
0,703,4:31.391.535,141.600 us,1 B,,SP,68,Read Transaction,01*
0,704,4:31.391.802,961.900 us,1 B,,SP,68,Write Transaction,02
0,705,4:31.393.889,743.100 us,1 B,,S,72,Write Transaction,03
0,706,4:31.394.632,1.483.400 ms,1 B,,SP,72,Read Transaction,50*
0,707,4:31.399.289,647.500 us,1 B,,SP,68,Read Transaction,02*
0,708,4:31.400.115,146.100 us,1 B,,SP,68,Write Transaction,03
0,709,4:31.404.200,866.000 us,1 B,,S,72,Write Transaction,03
0,710,4:31.405.066,1.961.700 ms,1 B,,SP,72,Read Transaction,50*
0,711,4:31.410.381,771.800 us,1 B,,SP,68,Read Transaction,03*
0,712,4:31.412.156,1.012.000 ms,1 B,,SP,68,Write Transaction,04
0,713,4:31.416.230,140.900 us,1 B,,S,72,Write Transaction,03
0,714,4:31.416.370,7.719.500 ms,1 B,,SP,72,Read Transaction,50*
0,715,4:31.426.894,156.200 us,1 B,,SP,68,Read Transaction,04*
0,716,4:31.427.176,132.800 us,1 B,,SP,68,Write Transaction,05
0,717,4:31.427.498,142.200 us,1 B,,S,72,Write Transaction,03
0,718,4:31.427.640,307.700 us,1 B,,SP,72,Read Transaction,50*
0,719,4:31.434.313,220.400 us,1 B,,SP,68,Read Transaction,05*
0,720,4:31.434.584,115.500 us,1 B,,SP,68,Write Transaction,06
0,721,4:31.434.850,139.900 us,1 B,,S,72,Write Transaction,03
0,722,4:31.434.990,159.400 us,1 B,,SP,72,Read Transaction,50*
0,723,4:31.438.370,202.800 us,1 B,,SP,68,Read Transaction,06*
0,724,4:31.438.626,175.700 us,1 B,,SP,68,Write Transaction,07
0,725,4:31.438.925,120.300 us,1 B,,S,72,Write Transaction,03
0,726,4:31.439.046,131.000 us,1 B,,SP,72,Read Transaction,50*
0,727,4:31.452.023,263.700 us,1 B,,SP,1B,Read Transaction,00*
0,728,4:31.452.764,1.444.600 ms,1 B,,SP,1C,Read Transaction,FF*
0,729,4:33.482.772,172.600 us,1 B,,SP,68,Read Transaction,07*
0,730,4:33.482.997,93.800 us,1 B,,SP,68,Write Transaction,01
0,731,4:33.483.245,126.400 us,1 B,,S,72,Write Transaction,03
0,732,4:33.483.371,167.900 us,1 B,,SP,72,Read Transaction,50*
0,733,4:33.500.212,2.459.100 ms,1 B,,SP,68,Read Transaction,01*
0,734,4:33.502.773,1.552.200 ms,1 B,,SP,68,Write Transaction,02
0,735,4:33.508.838,3.385.400 ms,1 B,,S,72,Write Transaction,03
0,736,4:33.512.223,3.012.400 ms,1 B,,SP,72,Read Transaction,50*
0,737,4:33.533.647,902.700 us,1 B,,SP,68,Read Transaction,02*
0,738,4:33.534.641,99.500 us,1 B,,SP,68,Write Transaction,03
0,739,4:33.534.889,128.300 us,1 B,,S,72,Write Transaction,03
0,740,4:33.535.018,228.000 us,1 B,,SP,72,Read Transaction,50*
0,741,4:33.605.245,1.948.700 ms,1 B,,SP,68,Read Transaction,03*
0,742,4:33.607.296,1.498.600 ms,1 B,,SP,68,Write Transaction,04
0,743,4:33.610.931,806.600 us,1 B,,S,72,Write Transaction,03
0,744,4:33.611.737,10.181.800 ms,1 B,,SP,72,Read Transaction,50*
0,745,4:33.628.428,1.553.600 ms,1 B,,SP,68,Read Transaction,04*
0,746,4:33.630.074,1.040.800 ms,1 B,,SP,68,Write Transaction,05
0,747,4:33.636.559,920.900 us,1 B,,S,72,Write Transaction,03
0,748,4:33.637.479,6.407.700 ms,1 B,,SP,72,Read Transaction,50*
0,749,4:33.647.183,1.185.600 ms,1 B,,SP,68,Read Transaction,05*
0,750,4:33.648.455,3.752.000 ms,1 B,,SP,68,Write Transaction,06
0,751,4:33.656.289,1.880.500 ms,1 B,,S,72,Write Transaction,03
0,752,4:33.658.169,2.630.100 ms,1 B,,SP,72,Read Transaction,50*
0,753,4:33.663.348,2.008.900 ms,1 B,,SP,68,Read Transaction,06*
0,754,4:33.665.459,113.400 us,1 B,,SP,68,Write Transaction,07
0,755,4:33.665.721,122.100 us,1 B,,S,72,Write Transaction,03
0,756,4:33.665.843,179.600 us,1 B,,SP,72,Read Transaction,50*
0,757,4:33.668.657,267.000 us,1 B,,SP,1B,Read Transaction,00*
0,758,4:33.668.966,154.900 us,1 B,,SP,1C,Read Transaction,FF*
0,759,4:35.745.112,228.000 us,1 B,,SP,68,Read Transaction,07*
0,760,4:35.745.395,97.100 us,1 B,,SP,68,Write Transaction,01
0,761,4:35.745.621,123.500 us,1 B,,S,72,Write Transaction,03
0,762,4:35.745.744,140.700 us,1 B,,SP,72,Read Transaction,50*
0,763,4:35.747.709,145.200 us,1 B,,SP,68,Read Transaction,01*
0,764,4:35.747.904,94.000 us,1 B,,SP,68,Write Transaction,02
0,765,4:35.748.140,268.100 us,1 B,,S,72,Write Transaction,03
0,766,4:35.748.408,154.700 us,1 B,,SP,72,Read Transaction,50*
0,767,4:35.750.323,227.300 us,1 B,,SP,68,Read Transaction,02*
0,768,4:35.750.608,90.900 us,1 B,,SP,68,Write Transaction,03
0,769,4:35.750.831,326.200 us,1 B,,S,72,Write Transaction,03
0,770,4:35.751.157,157.700 us,1 B,,SP,72,Read Transaction,50*
0,771,4:35.755.064,139.600 us,1 B,,SP,68,Read Transaction,03*
0,772,4:35.755.251,87.600 us,1 B,,SP,68,Write Transaction,04
0,773,4:35.755.488,125.400 us,1 B,,S,72,Write Transaction,03
0,774,4:35.755.614,346.100 us,1 B,,SP,72,Read Transaction,50*
0,775,4:35.766.857,131.900 us,1 B,,SP,68,Read Transaction,04*
0,776,4:35.767.041,96.500 us,1 B,,SP,68,Write Transaction,05
0,777,4:35.767.283,126.900 us,1 B,,S,72,Write Transaction,03
0,778,4:35.767.409,236.800 us,1 B,,SP,72,Read Transaction,50*
0,779,4:35.772.843,799.700 us,1 B,,SP,68,Read Transaction,05*
0,780,4:35.773.730,124.100 us,1 B,,SP,68,Write Transaction,06
0,781,4:35.774.089,221.600 us,1 B,,S,72,Write Transaction,03
0,782,4:35.774.311,401.200 us,1 B,,SP,72,Read Transaction,50*
0,783,4:35.779.444,142.100 us,1 B,,SP,68,Read Transaction,06*
0,784,4:35.779.639,171.600 us,1 B,,SP,68,Write Transaction,07
0,785,4:35.779.989,127.800 us,1 B,,S,72,Write Transaction,03
0,786,4:35.780.116,284.200 us,1 B,,SP,72,Read Transaction,50*
0,787,4:35.790.567,5.886.100 ms,1 B,,SP,1B,Read Transaction,00*
0,788,4:35.800.417,179.000 us,1 B,,SP,1C,Read Transaction,FF*
0,789,4:37.886.273,149.700 us,1 B,,SP,68,Read Transaction,07*
0,790,4:37.886.469,88.800 us,1 B,,SP,68,Write Transaction,01
0,791,4:37.886.708,121.700 us,1 B,,S,72,Write Transaction,03
0,792,4:37.886.829,149.500 us,1 B,,SP,72,Read Transaction,50*
0,793,4:37.892.154,574.200 us,1 B,,SP,68,Read Transaction,01*
0,794,4:37.892.807,88.800 us,1 B,,SP,68,Write Transaction,02
0,795,4:37.893.081,126.000 us,1 B,,S,72,Write Transaction,03
0,796,4:37.893.207,212.100 us,1 B,,SP,72,Read Transaction,50*
0,797,4:38.191.515,4.706.300 ms,1 B,,SP,68,Read Transaction,02*
0,798,4:38.196.321,977.100 us,1 B,,SP,68,Write Transaction,03
0,799,4:38.197.655,206.300 us,1 B,,S,72,Write Transaction,03
0,800,4:38.197.862,179.500 us,1 B,,SP,72,Read Transaction,50*
0,801,4:38.248.853,4.007.100 ms,1 B,,SP,68,Read Transaction,03*
0,802,4:38.252.956,3.782.500 ms,1 B,,SP,68,Write Transaction,04
0,803,4:38.265.883,734.100 us,1 B,,S,72,Write Transaction,03
0,804,4:38.266.617,2.107.800 ms,1 B,,SP,72,Read Transaction,50*
0,805,4:38.545.711,4.399.700 ms,1 B,,SP,68,Read Transaction,04*
0,806,4:38.550.213,124.200 us,1 B,,SP,68,Write Transaction,05
0,807,4:38.550.493,139.100 us,1 B,,S,72,Write Transaction,03
0,808,4:38.550.632,156.200 us,1 B,,SP,72,Read Transaction,50*
0,809,4:38.563.997,1.008.200 ms,1 B,,SP,68,Read Transaction,05*
0,810,4:38.565.086,100.100 us,1 B,,SP,68,Write Transaction,06
0,811,4:38.565.329,139.400 us,1 B,,S,72,Write Transaction,03
0,812,4:38.565.468,160.700 us,1 B,,SP,72,Read Transaction,50*
0,813,4:38.572.217,204.000 us,1 B,,SP,68,Read Transaction,06*
0,814,4:38.572.484,95.800 us,1 B,,SP,68,Write Transaction,07
0,815,4:38.580.869,3.958.300 ms,1 B,,S,72,Write Transaction,03
0,816,4:38.584.828,8.013.900 ms,1 B,,SP,72,Read Transaction,50*
0,817,4:38.595.152,112.400 us,1 B,,SP,1B,Read Transaction,00*
0,818,4:38.595.295,105.700 us,1 B,,SP,1C,Read Transaction,FF*
0,819,4:40.622.730,139.400 us,1 B,,SP,68,Read Transaction,07*
0,820,4:40.622.916,87.100 us,1 B,,SP,68,Write Transaction,01
0,821,4:40.623.137,121.500 us,1 B,,S,72,Write Transaction,03
0,822,4:40.623.259,136.000 us,1 B,,SP,72,Read Transaction,50*
0,823,4:40.628.033,209.400 us,1 B,,SP,68,Read Transaction,01*
0,824,4:40.628.294,189.700 us,1 B,,SP,68,Write Transaction,02
0,825,4:40.628.629,634.500 us,1 B,,S,72,Write Transaction,03
0,826,4:40.629.264,182.200 us,1 B,,SP,72,Read Transaction,50*
0,827,4:40.642.613,199.100 us,1 B,,SP,68,Read Transaction,02*
0,828,4:40.642.871,89.200 us,1 B,,SP,68,Write Transaction,03
0,829,4:40.643.104,118.700 us,1 B,,S,72,Write Transaction,03
0,830,4:40.643.222,138.100 us,1 B,,SP,72,Read Transaction,50*
0,831,4:40.647.896,145.200 us,1 B,,SP,68,Read Transaction,03*
0,832,4:40.648.093,93.100 us,1 B,,SP,68,Write Transaction,04
0,833,4:40.648.389,129.000 us,1 B,,S,72,Write Transaction,03
0,834,4:40.648.518,1.544.300 ms,1 B,,SP,72,Read Transaction,50*
0,835,4:40.659.838,531.300 us,1 B,,SP,68,Read Transaction,04*
0,836,4:40.660.446,85.600 us,1 B,,SP,68,Write Transaction,05
0,837,4:40.660.675,122.100 us,1 B,,S,72,Write Transaction,03
0,838,4:40.660.797,309.700 us,1 B,,SP,72,Read Transaction,50*
0,839,4:40.663.618,136.400 us,1 B,,SP,68,Read Transaction,05*
0,840,4:40.663.798,90.400 us,1 B,,SP,68,Write Transaction,06
0,841,4:40.664.018,117.800 us,1 B,,S,72,Write Transaction,03
0,842,4:40.664.136,160.500 us,1 B,,SP,72,Read Transaction,50*
0,843,4:40.666.926,501.200 us,1 B,,SP,68,Read Transaction,06*
0,844,4:40.667.581,140.800 us,1 B,,SP,68,Write Transaction,07
0,845,4:40.667.869,128.300 us,1 B,,S,72,Write Transaction,03
0,846,4:40.667.997,171.500 us,1 B,,SP,72,Read Transaction,50*
0,847,4:40.681.521,172.100 us,1 B,,SP,1B,Read Transaction,00*
0,848,4:40.681.738,125.700 us,1 B,,SP,1C,Read Transaction,FF*
0,849,4:42.710.881,209.400 us,1 B,,SP,68,Read Transaction,07*
0,850,4:42.711.154,88.400 us,1 B,,SP,68,Write Transaction,01
0,851,4:42.711.408,117.200 us,1 B,,S,72,Write Transaction,03
0,852,4:42.711.525,264.700 us,1 B,,SP,72,Read Transaction,50*
0,853,4:42.716.404,138.400 us,1 B,,SP,68,Read Transaction,01*
0,854,4:42.716.600,89.200 us,1 B,,SP,68,Write Transaction,02
0,855,4:42.716.823,119.600 us,1 B,,S,72,Write Transaction,03
0,856,4:42.716.943,202.900 us,1 B,,SP,72,Read Transaction,50*
0,857,4:42.719.607,179.700 us,1 B,,SP,68,Read Transaction,02*
0,858,4:42.719.839,88.800 us,1 B,,SP,68,Write Transaction,03
0,859,4:42.720.078,120.300 us,1 B,,S,72,Write Transaction,03
0,860,4:42.720.199,136.400 us,1 B,,SP,72,Read Transaction,50*
0,861,4:42.724.908,143.400 us,1 B,,SP,68,Read Transaction,03*
0,862,4:42.725.259,102.900 us,1 B,,SP,68,Write Transaction,04
0,863,4:42.725.500,123.700 us,1 B,,S,72,Write Transaction,03
0,864,4:42.725.623,150.800 us,1 B,,SP,72,Read Transaction,50*
0,865,4:42.730.957,149.400 us,1 B,,SP,68,Read Transaction,04*
0,866,4:42.731.183,149.300 us,1 B,,SP,68,Write Transaction,05
0,867,4:42.731.820,140.500 us,1 B,,S,72,Write Transaction,03
0,868,4:42.731.960,139.100 us,1 B,,SP,72,Read Transaction,50*
0,869,4:42.763.358,132.800 us,1 B,,SP,68,Read Transaction,05*
0,870,4:42.763.541,111.200 us,1 B,,SP,68,Write Transaction,06
0,871,4:42.763.793,171.900 us,1 B,,S,72,Write Transaction,03
0,872,4:42.763.965,152.800 us,1 B,,SP,72,Read Transaction,50*
0,873,4:42.768.674,137.100 us,1 B,,SP,68,Read Transaction,06*
0,874,4:42.768.857,88.100 us,1 B,,SP,68,Write Transaction,07
0,875,4:42.769.262,133.900 us,1 B,,S,72,Write Transaction,03
0,876,4:42.769.396,137.800 us,1 B,,SP,72,Read Transaction,50*
0,877,4:42.806.587,2.818.000 ms,1 B,,SP,1B,Read Transaction,00*
0,878,4:42.809.487,117.100 us,1 B,,SP,1C,Read Transaction,FF*
0,879,4:44.831.698,513.400 us,1 B,,SP,68,Read Transaction,07*
0,880,4:44.832.296,224.800 us,1 B,,SP,68,Write Transaction,01
0,881,4:44.832.668,148.500 us,1 B,,S,72,Write Transaction,03
0,882,4:44.832.816,134.200 us,1 B,,SP,72,Read Transaction,50*
0,883,4:44.843.702,172.500 us,1 B,,SP,68,Read Transaction,01*
0,884,4:44.843.924,94.000 us,1 B,,SP,68,Write Transaction,02
0,885,4:44.844.201,127.000 us,1 B,,S,72,Write Transaction,03
0,886,4:44.844.328,297.400 us,1 B,,SP,72,Read Transaction,50*
0,887,4:44.847.355,162.700 us,1 B,,SP,68,Read Transaction,02*
0,888,4:44.847.564,230.300 us,1 B,,SP,68,Write Transaction,03
0,889,4:44.847.929,130.100 us,1 B,,S,72,Write Transaction,03
0,890,4:44.848.059,155.900 us,1 B,,SP,72,Read Transaction,50*
0,891,4:44.851.394,160.500 us,1 B,,SP,68,Read Transaction,03*
0,892,4:44.851.633,284.400 us,1 B,,SP,68,Write Transaction,04
0,893,4:44.852.183,126.900 us,1 B,,S,72,Write Transaction,03
0,894,4:44.852.310,136.600 us,1 B,,SP,72,Read Transaction,50*
0,895,4:44.855.442,208.100 us,1 B,,SP,68,Read Transaction,04*
0,896,4:44.855.702,95.500 us,1 B,,SP,68,Write Transaction,05
0,897,4:44.855.950,123.800 us,1 B,,S,72,Write Transaction,03
0,898,4:44.856.074,194.400 us,1 B,,SP,72,Read Transaction,50*
0,899,4:44.864.623,2.851.200 ms,1 B,,SP,68,Read Transaction,05*
0,900,4:44.868.278,130.800 us,1 B,,SP,68,Write Transaction,06
0,901,4:44.868.542,122.800 us,1 B,,S,72,Write Transaction,03
0,902,4:44.868.665,140.100 us,1 B,,SP,72,Read Transaction,50*
0,903,4:44.872.221,271.000 us,1 B,,SP,68,Read Transaction,06*
0,904,4:44.872.562,89.200 us,1 B,,SP,68,Write Transaction,07
0,905,4:44.872.772,118.900 us,1 B,,S,72,Write Transaction,03
0,906,4:44.872.891,359.700 us,1 B,,SP,72,Read Transaction,50*
0,907,4:44.879.601,178.900 us,1 B,,SP,1B,Read Transaction,00*
0,908,4:44.879.820,831.100 us,1 B,,SP,1C,Read Transaction,FF*
0,909,4:46.929.551,280.400 us,1 B,,SP,68,Read Transaction,07*
0,910,4:46.929.895,86.500 us,1 B,,SP,68,Write Transaction,01
0,911,4:46.930.109,119.300 us,1 B,,S,72,Write Transaction,03
0,912,4:46.930.228,198.400 us,1 B,,SP,72,Read Transaction,50*
0,913,4:46.935.498,150.900 us,1 B,,SP,68,Read Transaction,01*
0,914,4:46.935.699,88.400 us,1 B,,SP,68,Write Transaction,02
0,915,4:46.935.933,123.300 us,1 B,,S,72,Write Transaction,03
0,916,4:46.936.056,141.600 us,1 B,,SP,72,Read Transaction,50*
0,917,4:46.939.694,874.900 us,1 B,,SP,68,Read Transaction,02*
0,918,4:46.940.629,91.800 us,1 B,,SP,68,Write Transaction,03
0,919,4:46.940.876,1.069.300 ms,1 B,,S,72,Write Transaction,03
0,920,4:46.941.946,159.400 us,1 B,,SP,72,Read Transaction,50*
0,921,4:46.944.515,141.000 us,1 B,,SP,68,Read Transaction,03*
0,922,4:46.944.701,92.700 us,1 B,,SP,68,Write Transaction,04
0,923,4:46.944.921,118.700 us,1 B,,S,72,Write Transaction,03
0,924,4:46.945.040,133.700 us,1 B,,SP,72,Read Transaction,50*
0,925,4:46.960.552,169.200 us,1 B,,SP,68,Read Transaction,04*
0,926,4:46.960.855,112.300 us,1 B,,SP,68,Write Transaction,05
0,927,4:46.961.101,133.700 us,1 B,,S,72,Write Transaction,03
0,928,4:46.961.234,156.500 us,1 B,,SP,72,Read Transaction,50*
0,929,4:46.963.821,142.000 us,1 B,,SP,68,Read Transaction,05*
0,930,4:46.964.015,125.100 us,1 B,,SP,68,Write Transaction,06
0,931,4:46.964.267,123.000 us,1 B,,S,72,Write Transaction,03
0,932,4:46.964.390,243.300 us,1 B,,SP,72,Read Transaction,50*
0,933,4:46.969.284,388.400 us,1 B,,SP,68,Read Transaction,06*
0,934,4:46.969.744,277.500 us,1 B,,SP,68,Write Transaction,07
0,935,4:46.970.197,129.500 us,1 B,,S,72,Write Transaction,03
0,936,4:46.970.327,178.600 us,1 B,,SP,72,Read Transaction,50*
0,937,4:46.985.870,430.100 us,1 B,,SP,1B,Read Transaction,00*
0,938,4:46.986.367,175.500 us,1 B,,SP,1C,Read Transaction,FF*
0,939,4:46.988.144,782.000 us,1 B,,SP,68,Read Transaction,07*
0,940,4:46.988.997,96.900 us,1 B,,SP,68,Write Transaction,04
0,941,4:46.990.234,582.500 us,14 B,,SP,5A,Write Transaction,FD 0C 30 00 00 00 06 00 66 88 8A DC 45 31
0,942,4:49.047.756,165.600 us,1 B,,SP,68,Read Transaction,04*
0,943,4:49.048.075,210.800 us,1 B,,SP,68,Write Transaction,01
0,944,4:49.048.583,177.600 us,1 B,,S,72,Write Transaction,03
0,945,4:49.048.760,141.100 us,1 B,,SP,72,Read Transaction,50*
0,946,4:49.070.354,195.200 us,1 B,,SP,68,Read Transaction,01*
0,947,4:49.070.598,94.200 us,1 B,,SP,68,Write Transaction,02
0,948,4:49.070.835,123.100 us,1 B,,S,72,Write Transaction,03
0,949,4:49.070.958,195.000 us,1 B,,SP,72,Read Transaction,50*
0,950,4:49.075.956,275.200 us,1 B,,SP,68,Read Transaction,02*
0,951,4:49.076.325,157.800 us,1 B,,SP,68,Write Transaction,03
0,952,4:49.076.741,168.300 us,1 B,,S,72,Write Transaction,03
0,953,4:49.076.910,144.800 us,1 B,,SP,72,Read Transaction,50*
0,954,4:49.102.701,6.191.500 ms,1 B,,SP,68,Read Transaction,03*
0,955,4:49.108.989,1.616.200 ms,1 B,,SP,68,Write Transaction,04
0,956,4:49.118.148,133.500 us,1 B,,S,72,Write Transaction,03
0,957,4:49.118.282,179.200 us,1 B,,SP,72,Read Transaction,50*
0,958,4:49.124.137,139.200 us,1 B,,SP,68,Read Transaction,04*
0,959,4:49.124.322,155.100 us,1 B,,SP,68,Write Transaction,05
0,960,4:49.125.256,986.800 us,1 B,,S,72,Write Transaction,03
0,961,4:49.126.243,258.000 us,1 B,,SP,72,Read Transaction,50*
0,962,4:49.132.743,226.200 us,1 B,,SP,68,Read Transaction,05*
0,963,4:49.133.023,86.500 us,1 B,,SP,68,Write Transaction,06
0,964,4:49.133.224,114.600 us,1 B,,S,72,Write Transaction,03
0,965,4:49.133.338,127.700 us,1 B,,SP,72,Read Transaction,50*
0,966,4:49.135.889,144.200 us,1 B,,SP,68,Read Transaction,06*
0,967,4:49.136.122,89.900 us,1 B,,SP,68,Write Transaction,07
0,968,4:49.136.429,136.100 us,1 B,,S,72,Write Transaction,03
0,969,4:49.136.565,166.500 us,1 B,,SP,72,Read Transaction,50*
0,970,4:49.169.604,4.445.600 ms,1 B,,SP,1B,Read Transaction,08*
0,971,4:49.178.379,7.833.100 ms,1 B,,SP,1C,Read Transaction,F7*
0,972,4:49.201.571,576.700 us,1 B,,SP,68,Read Transaction,07*
0,973,4:49.202.293,94.800 us,1 B,,SP,68,Write Transaction,04
0,974,4:49.202.541,22.830.400 ms,150 B,,SP,5A,Read Transaction,FD 02 30 D0 FF FF FF FF FF FF FF FF FF FF FF FF FF FF FF FF FF FF FF FF FF FF FF FF FF FF FF FF FF FF FF FF FF FF FF FF FF FF FF FF FF FF FF FF FF FF FF FF FF FF FF FF FF FF FF FF FF FF FF FF FF FF FF FF FF FF FF FF FF FF FF FF FF FF FF FF FF FF FF FF FF FF FF FF FF FF FF FF FF FF FF FF FF FF FF FF FF FF FF FF FF FF FF FF FF FF FF FF FF FF FF FF FF FF FF FF FF FF FF FF FF FF FF FF FF FF FF FF FF FF FF FF FF FF FF FF FF FF FF FF FF FF FF FF FF FF*
0,975,4:49.234.288,238.600 us,1 B,,SP,68,Read Transaction,04*
0,976,4:49.234.595,18.097.500 ms,5 B,,SP,5A,Write Transaction,FD 03 A1 30 2F
0,977,4:51.301.822,160.800 us,1 B,,SP,68,Read Transaction,04*
0,978,4:51.302.032,751.200 us,1 B,,SP,68,Write Transaction,01
0,979,4:51.303.030,112.000 us,1 B,,S,72,Write Transaction,03
0,980,4:51.303.142,170.100 us,1 B,,SP,72,Read Transaction,50*
0,981,4:51.310.052,449.700 us,1 B,,SP,68,Read Transaction,01*
0,982,4:51.310.565,102.600 us,1 B,,SP,68,Write Transaction,02
0,983,4:51.310.861,189.000 us,1 B,,S,72,Write Transaction,03
0,984,4:51.311.050,162.800 us,1 B,,SP,72,Read Transaction,50*
0,985,4:51.320.050,174.400 us,1 B,,SP,68,Read Transaction,02*
0,986,4:51.320.275,98.400 us,1 B,,SP,68,Write Transaction,03
0,987,4:51.320.524,135.500 us,1 B,,S,72,Write Transaction,03
0,988,4:51.320.660,300.900 us,1 B,,SP,72,Read Transaction,50*
0,989,4:51.324.159,456.500 us,1 B,,SP,68,Read Transaction,03*
0,990,4:51.324.685,87.200 us,1 B,,SP,68,Write Transaction,04
0,991,4:51.324.912,120.100 us,1 B,,S,72,Write Transaction,03
0,992,4:51.325.032,133.800 us,1 B,,SP,72,Read Transaction,50*
0,993,4:51.328.507,179.300 us,1 B,,SP,68,Read Transaction,04*
0,994,4:51.328.742,675.400 us,1 B,,SP,68,Write Transaction,05
0,995,4:51.329.594,131.000 us,1 B,,S,72,Write Transaction,03
0,996,4:51.329.725,142.800 us,1 B,,SP,72,Read Transaction,50*
0,997,4:51.332.317,177.600 us,1 B,,SP,68,Read Transaction,05*
0,998,4:51.332.577,173.200 us,1 B,,SP,68,Write Transaction,06
0,999,4:51.332.917,117.200 us,1 B,,S,72,Write Transaction,03
0,1000,4:51.333.034,362.700 us,1 B,,SP,72,Read Transaction,50*
0,1001,4:51.337.906,173.300 us,1 B,,SP,68,Read Transaction,06*
0,1002,4:51.338.213,88.800 us,1 B,,SP,68,Write Transaction,07
0,1003,4:51.338.481,129.900 us,1 B,,S,72,Write Transaction,03
0,1004,4:51.338.611,243.400 us,1 B,,SP,72,Read Transaction,50*
0,1005,4:51.366.539,221.300 us,1 B,,SP,1B,Read Transaction,00*
0,1006,4:51.367.702,2.717.400 ms,1 B,,SP,1C,Read Transaction,FF*
0,1007,4:51.379.276,362.800 us,1 B,,SP,68,Read Transaction,07*
0,1008,4:51.379.701,86.900 us,1 B,,SP,68,Write Transaction,04
0,1009,4:51.379.934,218.100 us,4 B,,SP,5A,Write Transaction,FD 02 31 CF
0,1010,4:53.432.897,149.000 us,1 B,,SP,68,Read Transaction,04*
0,1011,4:53.433.106,696.200 us,1 B,,SP,68,Write Transaction,01
0,1012,4:53.433.992,143.100 us,1 B,,S,72,Write Transaction,03
0,1013,4:53.434.135,927.300 us,1 B,,SP,72,Read Transaction,50*
0,1014,4:53.437.551,248.400 us,1 B,,SP,68,Read Transaction,01*
0,1015,4:53.437.863,143.000 us,1 B,,SP,68,Write Transaction,02
0,1016,4:53.438.129,121.200 us,1 B,,S,72,Write Transaction,03
0,1017,4:53.438.250,4.317.800 ms,1 B,,SP,72,Read Transaction,50*
0,1018,4:53.446.794,3.785.300 ms,1 B,,SP,68,Read Transaction,02*
0,1019,4:53.450.659,92.800 us,1 B,,SP,68,Write Transaction,03
0,1020,4:53.450.891,127.700 us,1 B,,S,72,Write Transaction,03
0,1021,4:53.451.019,144.600 us,1 B,,SP,72,Read Transaction,50*
0,1022,4:53.454.194,301.700 us,1 B,,SP,68,Read Transaction,03*
0,1023,4:53.458.528,4.358.200 ms,1 B,,SP,68,Write Transaction,04
0,1024,4:53.470.527,157.600 us,1 B,,S,72,Write Transaction,03
0,1025,4:53.470.684,147.800 us,1 B,,SP,72,Read Transaction,50*
0,1026,4:53.472.731,339.800 us,1 B,,SP,68,Read Transaction,04*
0,1027,4:53.473.140,96.300 us,1 B,,SP,68,Write Transaction,05
0,1028,4:53.473.374,130.500 us,1 B,,S,72,Write Transaction,03
0,1029,4:53.473.505,173.600 us,1 B,,SP,72,Read Transaction,50*
0,1030,4:53.477.084,140.600 us,1 B,,SP,68,Read Transaction,05*
0,1031,4:53.477.279,94.000 us,1 B,,SP,68,Write Transaction,06
0,1032,4:53.477.519,197.200 us,1 B,,S,72,Write Transaction,03
0,1033,4:53.477.716,159.400 us,1 B,,SP,72,Read Transaction,50*
0,1034,4:53.480.355,140.400 us,1 B,,SP,68,Read Transaction,06*
0,1035,4:53.480.713,105.400 us,1 B,,SP,68,Write Transaction,07
0,1036,4:53.481.019,162.900 us,1 B,,S,72,Write Transaction,03
0,1037,4:53.481.182,140.400 us,1 B,,SP,72,Read Transaction,50*
0,1038,4:53.506.509,4.078.500 ms,1 B,,SP,1B,Read Transaction,08*
0,1039,4:53.510.657,114.100 us,1 B,,SP,1C,Read Transaction,F7*
0,1040,4:53.514.956,137.700 us,1 B,,SP,68,Read Transaction,07*
0,1041,4:53.515.144,160.600 us,1 B,,SP,68,Write Transaction,04
0,1042,4:53.515.445,27.446.700 ms,150 B,,SP,5A,Read Transaction,FD 0C 31 00 00 00 06 00 6B B9 47 5A 96 6E FF FF FF FF FF FF FF FF FF FF FF FF FF FF FF FF FF FF FF FF FF FF FF FF FF FF FF FF FF FF FF FF FF FF FF FF FF FF FF FF FF FF FF FF FF FF FF FF FF FF FF FF FF FF FF FF FF FF FF FF FF FF FF FF FF FF FF FF FF FF FF FF FF FF FF FF FF FF FF FF FF FF FF FF FF FF FF FF FF FF FF FF FF FF FF FF FF FF FF FF FF FF FF FF FF FF FF FF FF FF FF FF FF FF FF FF FF FF FF FF FF FF FF FF FF FF FF FF FF FF FF FF FF FF FF FF*
0,1043,4:53.545.505,141.000 us,1 B,,SP,68,Read Transaction,04*
0,1044,4:53.545.715,19.580.300 ms,5 B,,SP,5A,Write Transaction,FD 03 A1 31 2E
0,1045,4:55.634.892,3.882.600 ms,1 B,,SP,68,Read Transaction,04*
0,1046,4:55.638.891,152.000 us,1 B,,SP,68,Write Transaction,01
0,1047,4:55.646.757,150.500 us,1 B,,S,72,Write Transaction,03
0,1048,4:55.646.908,1.113.500 ms,1 B,,SP,72,Read Transaction,50*
0,1049,4:55.652.399,807.200 us,1 B,,SP,68,Read Transaction,01*
0,1050,4:55.653.289,145.900 us,1 B,,SP,68,Write Transaction,02
0,1051,4:55.653.594,156.000 us,1 B,,S,72,Write Transaction,03
0,1052,4:55.653.750,188.400 us,1 B,,SP,72,Read Transaction,50*
0,1053,4:55.656.422,154.300 us,1 B,,SP,68,Read Transaction,02*
0,1054,4:55.656.626,125.700 us,1 B,,SP,68,Write Transaction,03
0,1055,4:55.656.908,141.900 us,1 B,,S,72,Write Transaction,03
0,1056,4:55.657.050,267.100 us,1 B,,SP,72,Read Transaction,50*
0,1057,4:55.660.025,263.800 us,1 B,,SP,68,Read Transaction,03*
0,1058,4:55.660.352,97.700 us,1 B,,SP,68,Write Transaction,04
0,1059,4:55.660.639,325.000 us,1 B,,S,72,Write Transaction,03
0,1060,4:55.660.964,155.500 us,1 B,,SP,72,Read Transaction,50*
0,1061,4:55.665.667,151.000 us,1 B,,SP,68,Read Transaction,04*
0,1062,4:55.665.868,230.500 us,1 B,,SP,68,Write Transaction,05
0,1063,4:55.666.253,127.800 us,1 B,,S,72,Write Transaction,03
0,1064,4:55.666.381,136.500 us,1 B,,SP,72,Read Transaction,50*
0,1065,4:55.672.717,2.118.700 ms,1 B,,SP,68,Read Transaction,05*
0,1066,4:55.674.925,4.156.600 ms,1 B,,SP,68,Write Transaction,06
0,1067,4:55.683.040,148.300 us,1 B,,S,72,Write Transaction,03
0,1068,4:55.683.188,132.200 us,1 B,,SP,72,Read Transaction,50*
0,1069,4:55.685.852,137.700 us,1 B,,SP,68,Read Transaction,06*
0,1070,4:55.686.037,92.800 us,1 B,,SP,68,Write Transaction,07
0,1071,4:55.686.408,280.400 us,1 B,,S,72,Write Transaction,03
0,1072,4:55.686.688,16.504.000 ms,1 B,,SP,72,Read Transaction,50*
0,1073,4:55.721.503,8.023.800 ms,1 B,,SP,1B,Read Transaction,00*
0,1074,4:55.729.622,1.276.600 ms,1 B,,SP,1C,Read Transaction,FF*
0,1075,4:55.733.156,5.548.300 ms,1 B,,SP,68,Read Transaction,07*
0,1076,4:55.739.006,93.600 us,1 B,,SP,68,Write Transaction,04
0,1077,4:55.739.227,21.230.600 ms,92 B,,SP,5A,Write Transaction,FD 5A 30 00 00 00 54 00 02 66 65 38 30 3A 3A 35 65 66 33 3A 66 63 66 66 3A 66 65 32 35 3A 64 38 62 30 00 00 00 00 00 00 00 00 00 00 00 00 00 00 00 36 32 31 31 00 00 57 ED 49 4E FA 35 DC 3A D0 AF 31 8D 5C C5 00 87 02 0E 89 38 43 37 15 E3 24 F7 44 DB 2A B5 F9 8B 84 8D 1B 61 C1
0,1078,4:57.796.873,140.700 us,1 B,,SP,68,Read Transaction,04*
0,1079,4:57.797.058,92.500 us,1 B,,SP,68,Write Transaction,01
0,1080,4:57.797.288,121.200 us,1 B,,S,72,Write Transaction,03
0,1081,4:57.797.409,135.100 us,1 B,,SP,72,Read Transaction,50*
0,1082,4:57.800.874,387.800 us,1 B,,SP,68,Read Transaction,01*
0,1083,4:57.801.333,700.000 us,1 B,,SP,68,Write Transaction,02
0,1084,4:57.802.226,972.100 us,1 B,,S,72,Write Transaction,03
0,1085,4:57.803.198,258.900 us,1 B,,SP,72,Read Transaction,50*
0,1086,4:57.805.850,140.100 us,1 B,,SP,68,Read Transaction,02*
0,1087,4:57.806.055,150.800 us,1 B,,SP,68,Write Transaction,03
0,1088,4:57.806.336,120.600 us,1 B,,S,72,Write Transaction,03
0,1089,4:57.806.457,138.900 us,1 B,,SP,72,Read Transaction,50*
0,1090,4:57.813.338,396.600 us,1 B,,SP,68,Read Transaction,03*
0,1091,4:57.813.805,92.900 us,1 B,,SP,68,Write Transaction,04
0,1092,4:57.814.016,119.000 us,1 B,,S,72,Write Transaction,03
0,1093,4:57.814.135,177.500 us,1 B,,SP,72,Read Transaction,50*
0,1094,4:57.818.974,445.900 us,1 B,,SP,68,Read Transaction,04*
0,1095,4:57.819.513,221.300 us,1 B,,SP,68,Write Transaction,05
0,1096,4:57.820.198,164.500 us,1 B,,S,72,Write Transaction,03
0,1097,4:57.820.362,169.800 us,1 B,,SP,72,Read Transaction,50*
0,1098,4:57.827.330,7.622.400 ms,1 B,,SP,68,Read Transaction,05*
0,1099,4:57.835.050,102.300 us,1 B,,SP,68,Write Transaction,06
0,1100,4:57.835.285,119.300 us,1 B,,S,72,Write Transaction,03
0,1101,4:57.835.405,132.500 us,1 B,,SP,72,Read Transaction,50*
0,1102,4:57.838.078,141.800 us,1 B,,SP,68,Read Transaction,06*
0,1103,4:57.838.268,92.200 us,1 B,,SP,68,Write Transaction,07
0,1104,4:57.838.498,121.700 us,1 B,,S,72,Write Transaction,03
0,1105,4:57.838.620,134.700 us,1 B,,SP,72,Read Transaction,50*
0,1106,4:57.840.298,111.700 us,1 B,,SP,1B,Read Transaction,08*
0,1107,4:57.840.445,116.300 us,1 B,,SP,1C,Read Transaction,F7*
0,1108,4:57.852.529,11.438.700 ms,1 B,,SP,68,Read Transaction,07*
0,1109,4:57.864.066,2.979.200 ms,1 B,,SP,68,Write Transaction,04
0,1110,4:57.867.230,5.097.000 ms,150 B,,SP,5A,Read Transaction,FD 02 30 D0 FF FF FF FF FF FF FF FF FF FF FF FF FF FF FF FF FF FF FF FF FF FF FF FF FF FF FF FF FF FF FF FF FF FF FF FF FF FF FF FF FF FF FF FF FF FF FF FF FF FF FF FF FF FF FF FF FF FF FF FF FF FF FF FF FF FF FF FF FF FF FF FF FF FF FF FF FF FF FF FF FF FF FF FF FF FF FF FF FF FF FF FF FF FF FF FF FF FF FF FF FF FF FF FF FF FF FF FF FF FF FF FF FF FF FF FF FF FF FF FF FF FF FF FF FF FF FF FF FF FF FF FF FF FF FF FF FF FF FF FF FF FF FF FF FF FF*
0,1111,4:57.879.141,8.002.900 ms,1 B,,SP,68,Read Transaction,04*
0,1112,4:57.887.245,18.675.600 ms,5 B,,SP,5A,Write Transaction,FD 03 A1 30 2F
0,1113,4:59.945.713,263.200 us,1 B,,SP,68,Read Transaction,04*
0,1114,4:59.946.040,108.100 us,1 B,,SP,68,Write Transaction,01
0,1115,4:59.946.290,190.400 us,1 B,,S,72,Write Transaction,03
0,1116,4:59.946.481,9.615.300 ms,1 B,,SP,72,Read Transaction,50*
0,1117,4:59.966.795,224.700 us,1 B,,SP,68,Read Transaction,01*
0,1118,4:59.967.069,271.700 us,1 B,,SP,68,Write Transaction,02
0,1119,4:59.967.581,132.500 us,1 B,,S,72,Write Transaction,03
0,1120,4:59.967.714,216.600 us,1 B,,SP,72,Read Transaction,50*
0,1121,4:59.986.876,139.700 us,1 B,,SP,68,Read Transaction,02*
0,1122,4:59.987.064,134.000 us,1 B,,SP,68,Write Transaction,03
0,1123,4:59.987.385,110.400 us,1 B,,S,72,Write Transaction,03
0,1124,4:59.987.495,146.500 us,1 B,,SP,72,Read Transaction,50*
0,1125,4:59.994.411,280.600 us,1 B,,SP,68,Read Transaction,03*
0,1126,4:59.994.764,131.800 us,1 B,,SP,68,Write Transaction,04
0,1127,4:59.995.077,180.000 us,1 B,,S,72,Write Transaction,03
0,1128,4:59.995.257,189.700 us,1 B,,SP,72,Read Transaction,50*
0,1129,5:00.002.378,176.000 us,1 B,,SP,68,Read Transaction,04*
0,1130,5:00.002.631,204.600 us,1 B,,SP,68,Write Transaction,05
0,1131,5:00.002.984,127.400 us,1 B,,S,72,Write Transaction,03
0,1132,5:00.003.111,803.000 us,1 B,,SP,72,Read Transaction,50*
0,1133,5:00.008.673,223.300 us,1 B,,SP,68,Read Transaction,05*
0,1134,5:00.008.947,95.000 us,1 B,,SP,68,Write Transaction,06
0,1135,5:00.009.235,135.300 us,1 B,,S,72,Write Transaction,03
0,1136,5:00.009.370,134.100 us,1 B,,SP,72,Read Transaction,50*
0,1137,5:00.014.089,188.800 us,1 B,,SP,68,Read Transaction,06*
0,1138,5:00.014.326,161.100 us,1 B,,SP,68,Write Transaction,07
0,1139,5:00.014.675,170.300 us,1 B,,S,72,Write Transaction,03
0,1140,5:00.014.845,189.600 us,1 B,,SP,72,Read Transaction,50*
0,1141,5:00.017.274,309.800 us,1 B,,SP,1B,Read Transaction,00*
0,1142,5:00.017.638,227.300 us,1 B,,SP,1C,Read Transaction,FF*
0,1143,5:00.055.542,992.000 us,1 B,,SP,68,Read Transaction,07*
0,1144,5:00.056.632,313.400 us,1 B,,SP,68,Write Transaction,04
0,1145,5:00.057.336,330.800 us,4 B,,SP,5A,Write Transaction,FD 02 31 CF
0,1146,5:02.111.757,236.900 us,1 B,,SP,68,Read Transaction,04*
0,1147,5:02.112.055,117.300 us,1 B,,SP,68,Write Transaction,01
0,1148,5:02.112.348,127.700 us,1 B,,S,72,Write Transaction,03
0,1149,5:02.112.475,139.300 us,1 B,,SP,72,Read Transaction,50*
0,1150,5:02.160.275,124.400 us,1 B,,SP,68,Read Transaction,01*
0,1151,5:02.160.439,91.400 us,1 B,,SP,68,Write Transaction,02
0,1152,5:02.160.654,118.200 us,1 B,,S,72,Write Transaction,03
0,1153,5:02.160.772,132.300 us,1 B,,SP,72,Read Transaction,50*
0,1154,5:02.163.307,205.800 us,1 B,,SP,68,Read Transaction,02*
0,1155,5:02.163.572,109.400 us,1 B,,SP,68,Write Transaction,03
0,1156,5:02.163.849,166.800 us,1 B,,S,72,Write Transaction,03
0,1157,5:02.164.016,344.500 us,1 B,,SP,72,Read Transaction,50*
0,1158,5:02.166.907,358.900 us,1 B,,SP,68,Read Transaction,03*
0,1159,5:02.167.347,4.146.700 ms,1 B,,SP,68,Write Transaction,04
0,1160,5:02.175.539,4.116.600 ms,1 B,,S,72,Write Transaction,03
0,1161,5:02.179.656,21.359.600 ms,1 B,,SP,72,Read Transaction,50*
0,1162,5:02.206.295,1.303.300 ms,1 B,,SP,68,Read Transaction,04*
0,1163,5:02.207.691,332.000 us,1 B,,SP,68,Write Transaction,05
0,1164,5:02.208.194,127.600 us,1 B,,S,72,Write Transaction,03
0,1165,5:02.208.321,132.900 us,1 B,,SP,72,Read Transaction,50*
0,1166,5:02.210.901,137.900 us,1 B,,SP,68,Read Transaction,05*
0,1167,5:02.211.107,88.600 us,1 B,,SP,68,Write Transaction,06
0,1168,5:02.211.314,191.600 us,1 B,,S,72,Write Transaction,03
0,1169,5:02.211.506,393.900 us,1 B,,SP,72,Read Transaction,50*
0,1170,5:02.214.332,144.400 us,1 B,,SP,68,Read Transaction,06*
0,1171,5:02.214.525,87.800 us,1 B,,SP,68,Write Transaction,07
0,1172,5:02.214.748,120.100 us,1 B,,S,72,Write Transaction,03
0,1173,5:02.214.868,133.700 us,1 B,,SP,72,Read Transaction,50*
0,1174,5:02.230.885,106.700 us,1 B,,SP,1B,Read Transaction,08*
0,1175,5:02.231.018,104.400 us,1 B,,SP,1C,Read Transaction,F7*
0,1176,5:02.418.360,1.473.400 ms,1 B,,SP,68,Read Transaction,07*
0,1177,5:02.419.992,609.600 us,1 B,,SP,68,Write Transaction,04
0,1178,5:02.420.785,4.966.400 ms,150 B,,SP,5A,Read Transaction,FD 10 31 00 00 00 0A 00 67 00 00 01 2C FD 04 C0 41 2F FF FF FF FF FF FF FF FF FF FF FF FF FF FF FF FF FF FF FF FF FF FF FF FF FF FF FF FF FF FF FF FF FF FF FF FF FF FF FF FF FF FF FF FF FF FF FF FF FF FF FF FF FF FF FF FF FF FF FF FF FF FF FF FF FF FF FF FF FF FF FF FF FF FF FF FF FF FF FF FF FF FF FF FF FF FF FF FF FF FF FF FF FF FF FF FF FF FF FF FF FF FF FF FF FF FF FF FF FF FF FF FF FF FF FF FF FF FF FF FF FF FF FF FF FF FF FF FF FF FF FF FF*
0,1179,5:02.432.721,200.100 us,1 B,,SP,68,Read Transaction,04*
0,1180,5:02.432.979,19.433.300 ms,5 B,,SP,5A,Write Transaction,FD 03 A1 31 2E
0,1181,5:04.493.598,135.600 us,1 B,,SP,68,Read Transaction,04*
0,1182,5:04.493.781,86.800 us,1 B,,SP,68,Write Transaction,01
0,1183,5:04.494.003,120.800 us,1 B,,S,72,Write Transaction,03
0,1184,5:04.494.124,160.900 us,1 B,,SP,72,Read Transaction,50*
0,1185,5:04.513.391,206.800 us,1 B,,SP,68,Read Transaction,01*
0,1186,5:04.513.649,88.500 us,1 B,,SP,68,Write Transaction,02
0,1187,5:04.513.915,121.900 us,1 B,,S,72,Write Transaction,03
0,1188,5:04.514.037,150.400 us,1 B,,SP,72,Read Transaction,50*
0,1189,5:04.525.751,209.800 us,1 B,,SP,68,Read Transaction,02*
0,1190,5:04.526.019,7.795.800 ms,1 B,,SP,68,Write Transaction,03
0,1191,5:04.535.036,136.700 us,1 B,,S,72,Write Transaction,03
0,1192,5:04.535.173,138.100 us,1 B,,SP,72,Read Transaction,50*
0,1193,5:04.544.332,1.699.000 ms,1 B,,SP,68,Read Transaction,03*
0,1194,5:04.546.209,99.600 us,1 B,,SP,68,Write Transaction,04
0,1195,5:04.546.430,121.700 us,1 B,,S,72,Write Transaction,03
0,1196,5:04.546.551,135.300 us,1 B,,SP,72,Read Transaction,50*
0,1197,5:04.573.294,2.163.100 ms,1 B,,SP,68,Read Transaction,04*
0,1198,5:04.575.547,94.300 us,1 B,,SP,68,Write Transaction,05
0,1199,5:04.584.062,3.669.300 ms,1 B,,S,72,Write Transaction,03
0,1200,5:04.587.732,206.900 us,1 B,,SP,72,Read Transaction,50*
0,1201,5:04.598.410,1.673.300 ms,1 B,,SP,68,Read Transaction,05*
0,1202,5:04.600.180,97.900 us,1 B,,SP,68,Write Transaction,06
0,1203,5:04.600.415,117.000 us,1 B,,S,72,Write Transaction,03
0,1204,5:04.600.532,130.100 us,1 B,,SP,72,Read Transaction,50*
0,1205,5:04.610.857,1.039.600 ms,1 B,,SP,68,Read Transaction,06*
0,1206,5:04.611.981,87.600 us,1 B,,SP,68,Write Transaction,07
0,1207,5:04.612.298,127.000 us,1 B,,S,72,Write Transaction,03
0,1208,5:04.612.425,138.200 us,1 B,,SP,72,Read Transaction,50*
0,1209,5:04.617.529,942.200 us,1 B,,SP,1B,Read Transaction,00*
0,1210,5:04.618.628,150.800 us,1 B,,SP,1C,Read Transaction,FF*
0,1211,5:04.675.543,315.200 us,1 B,,SP,68,Read Transaction,07*
0,1212,5:04.676.969,18.380.400 ms,14 B,,SP,5A,Write Transaction,FD 0C 30 00 00 00 06 00 66 88 8A DC 45 31
0,1213,5:06.767.482,137.000 us,1 B,,SP,68,Read Transaction,07*
0,1214,5:06.767.664,86.600 us,1 B,,SP,68,Write Transaction,01
0,1215,5:06.767.883,220.700 us,1 B,,S,72,Write Transaction,03
0,1216,5:06.768.104,146.000 us,1 B,,SP,72,Read Transaction,50*
0,1217,5:06.770.625,136.600 us,1 B,,SP,68,Read Transaction,01*
0,1218,5:06.770.805,91.300 us,1 B,,SP,68,Write Transaction,02
0,1219,5:06.771.033,121.400 us,1 B,,S,72,Write Transaction,03
0,1220,5:06.771.154,137.200 us,1 B,,SP,72,Read Transaction,50*
0,1221,5:06.773.732,136.700 us,1 B,,SP,68,Read Transaction,02*
0,1222,5:06.773.912,90.800 us,1 B,,SP,68,Write Transaction,03
0,1223,5:06.774.130,119.300 us,1 B,,S,72,Write Transaction,03
0,1224,5:06.774.249,242.200 us,1 B,,SP,72,Read Transaction,50*
0,1225,5:06.779.061,1.212.400 ms,1 B,,SP,68,Read Transaction,03*
0,1226,5:06.784.089,235.200 us,1 B,,SP,68,Write Transaction,04
0,1227,5:06.784.549,124.400 us,1 B,,S,72,Write Transaction,03
0,1228,5:06.784.673,134.700 us,1 B,,SP,72,Read Transaction,50*
0,1229,5:06.803.509,230.500 us,1 B,,SP,68,Read Transaction,04*
0,1230,5:06.803.798,91.700 us,1 B,,SP,68,Write Transaction,05
0,1231,5:06.804.114,131.900 us,1 B,,S,72,Write Transaction,03
0,1232,5:06.804.246,133.700 us,1 B,,SP,72,Read Transaction,50*
0,1233,5:06.813.869,136.600 us,1 B,,SP,68,Read Transaction,05*
0,1234,5:06.814.052,231.400 us,1 B,,SP,68,Write Transaction,06
0,1235,5:06.814.433,124.500 us,1 B,,S,72,Write Transaction,03
0,1236,5:06.814.557,134.300 us,1 B,,SP,72,Read Transaction,50*
0,1237,5:06.817.133,138.600 us,1 B,,SP,68,Read Transaction,06*
0,1238,5:06.817.318,86.300 us,1 B,,SP,68,Write Transaction,07
0,1239,5:06.817.534,120.300 us,1 B,,S,72,Write Transaction,03
0,1240,5:06.817.654,133.400 us,1 B,,SP,72,Read Transaction,50*
0,1241,5:06.825.611,8.208.100 ms,1 B,,SP,1B,Read Transaction,40*
0,1242,5:06.833.948,112.400 us,1 B,,SP,1C,Read Transaction,BF*
0,1243,5:06.899.294,146.300 us,1 B,,SP,68,Read Transaction,07*
0,1244,5:06.899.484,12.557.200 ms,150 B,,SP,5A,Read Transaction,FD 02 30 D0 FF FF FF FF FF FF FF FF FF FF FF FF FF FF FF FF FF FF FF FF FF FF FF FF FF FF FF FF FF FF FF FF FF FF FF FF FF FF FF FF FF FF FF FF FF FF FF FF FF FF FF FF FF FF FF FF FF FF FF FF FF FF FF FF FF FF FF FF FF FF FF FF FF FF FF FF FF FF FF FF FF FF FF FF FF FF FF FF FF FF FF FF FF FF FF FF FF FF FF FF FF FF FF FF FF FF FF FF FF FF FF FF FF FF FF FF FF FF FF FF FF FF FF FF FF FF FF FF FF FF FF FF FF FF FF FF FF FF FF FF FF FF FF FF FF FF*
0,1245,5:06.914.869,139.900 us,1 B,,SP,68,Read Transaction,07*
0,1246,5:06.915.051,16.284.700 ms,5 B,,SP,5A,Write Transaction,FD 03 A1 30 2F
0,1247,5:06.947.725,296.500 us,1 B,,SP,68,Read Transaction,07*
0,1248,5:06.948.078,95.700 us,1 B,,SP,68,Write Transaction,01
0,1249,5:06.948.325,721.300 us,14 B,,SP,5A,Write Transaction,FD 0C 30 00 00 00 06 00 66 88 8A DC 45 31
0,1250,5:06.983.807,469.400 us,1 B,,SP,68,Read Transaction,01*
0,1251,5:06.986.296,1.047.000 ms,1 B,,SP,68,Write Transaction,05
0,1252,5:06.989.392,24.031.000 ms,14 B,,SP,5A,Write Transaction,FD 0C 30 00 00 00 06 00 66 88 8A DC 45 31
0,1253,5:09.049.375,181.600 us,1 B,,SP,68,Read Transaction,05*
0,1254,5:09.049.616,91.700 us,1 B,,SP,68,Write Transaction,01
0,1255,5:09.049.823,117.900 us,1 B,,S,72,Write Transaction,03
0,1256,5:09.049.941,131.100 us,1 B,,SP,72,Read Transaction,50*
0,1257,5:09.052.754,174.600 us,1 B,,SP,68,Read Transaction,01*
0,1258,5:09.052.977,88.800 us,1 B,,SP,68,Write Transaction,02
0,1259,5:09.053.233,120.100 us,1 B,,S,72,Write Transaction,03
0,1260,5:09.053.354,155.500 us,1 B,,SP,72,Read Transaction,50*
0,1261,5:09.082.636,146.700 us,1 B,,SP,68,Read Transaction,02*
0,1262,5:09.082.827,90.600 us,1 B,,SP,68,Write Transaction,03
0,1263,5:09.083.042,114.200 us,1 B,,S,72,Write Transaction,03
0,1264,5:09.083.156,128.200 us,1 B,,SP,72,Read Transaction,50*
0,1265,5:09.087.874,135.700 us,1 B,,SP,68,Read Transaction,03*
0,1266,5:09.088.049,90.800 us,1 B,,SP,68,Write Transaction,04
0,1267,5:09.088.303,132.100 us,1 B,,S,72,Write Transaction,03
0,1268,5:09.088.435,157.500 us,1 B,,SP,72,Read Transaction,50*
0,1269,5:09.091.207,344.700 us,1 B,,SP,68,Read Transaction,04*
0,1270,5:09.091.635,84.900 us,1 B,,SP,68,Write Transaction,05
0,1271,5:09.091.859,122.700 us,1 B,,S,72,Write Transaction,03
0,1272,5:09.091.981,155.700 us,1 B,,SP,72,Read Transaction,50*
0,1273,5:09.094.723,148.200 us,1 B,,SP,68,Read Transaction,05*
0,1274,5:09.094.921,99.100 us,1 B,,SP,68,Write Transaction,06
0,1275,5:09.095.270,131.700 us,1 B,,S,72,Write Transaction,03
0,1276,5:09.095.402,134.800 us,1 B,,SP,72,Read Transaction,50*
0,1277,5:09.099.073,130.600 us,1 B,,SP,68,Read Transaction,06*
0,1278,5:09.099.279,127.700 us,1 B,,SP,68,Write Transaction,07
0,1279,5:09.099.552,135.300 us,1 B,,S,72,Write Transaction,03
0,1280,5:09.099.687,133.500 us,1 B,,SP,72,Read Transaction,50*
0,1281,5:09.112.806,106.500 us,1 B,,SP,1B,Read Transaction,11*
0,1282,5:09.112.939,105.400 us,1 B,,SP,1C,Read Transaction,EE*
0,1283,5:09.115.044,138.200 us,1 B,,SP,68,Read Transaction,07*
0,1284,5:09.115.233,91.600 us,1 B,,SP,68,Write Transaction,01
0,1285,5:09.115.456,12.857.800 ms,150 B,,SP,5A,Read Transaction,FD 02 30 D0 FF FF FF FF FF FF FF FF FF FF FF FF FF FF FF FF FF FF FF FF FF FF FF FF FF FF FF FF FF FF FF FF FF FF FF FF FF FF FF FF FF FF FF FF FF FF FF FF FF FF FF FF FF FF FF FF FF FF FF FF FF FF FF FF FF FF FF FF FF FF FF FF FF FF FF FF FF FF FF FF FF FF FF FF FF FF FF FF FF FF FF FF FF FF FF FF FF FF FF FF FF FF FF FF FF FF FF FF FF FF FF FF FF FF FF FF FF FF FF FF FF FF FF FF FF FF FF FF FF FF FF FF FF FF FF FF FF FF FF FF FF FF FF FF FF FF*
0,1286,5:09.149.369,1.473.300 ms,1 B,,SP,68,Read Transaction,01*
0,1287,5:09.150.913,24.151.100 ms,5 B,,SP,5A,Write Transaction,FD 03 A1 30 2F
0,1288,5:09.214.099,149.600 us,1 B,,SP,68,Read Transaction,01*
0,1289,5:09.214.319,167.900 us,1 B,,SP,68,Write Transaction,05
0,1290,5:09.214.619,4.989.300 ms,150 B,,SP,5A,Read Transaction,FD 02 30 D0 FF FF FF FF FF FF FF FF FF FF FF FF FF FF FF FF FF FF FF FF FF FF FF FF FF FF FF FF FF FF FF FF FF FF FF FF FF FF FF FF FF FF FF FF FF FF FF FF FF FF FF FF FF FF FF FF FF FF FF FF FF FF FF FF FF FF FF FF FF FF FF FF FF FF FF FF FF FF FF FF FF FF FF FF FF FF FF FF FF FF FF FF FF FF FF FF FF FF FF FF FF FF FF FF FF FF FF FF FF FF FF FF FF FF FF FF FF FF FF FF FF FF FF FF FF FF FF FF FF FF FF FF FF FF FF FF FF FF FF FF FF FF FF FF FF FF*
0,1291,5:09.256.783,122.300 us,1 B,,SP,68,Read Transaction,05*
0,1292,5:09.256.944,244.600 us,5 B,,SP,5A,Write Transaction,FD 03 A1 30 2F
0,1293,5:10.940.310,201.200 us,1 B,,SP,68,Read Transaction,05*
0,1294,5:10.940.705,300.000 us,1 B,,SP,68,Write Transaction,07
0,1295,5:10.941.375,296.900 us,4 B,,SP,5A,Write Transaction,FD 02 31 CF
0,1296,5:14.296.379,176.200 us,1 B,,SP,68,Read Transaction,07*
0,1297,5:14.296.610,86.600 us,1 B,,SP,68,Write Transaction,01
0,1298,5:14.301.420,3.747.800 ms,1 B,,S,72,Write Transaction,03
0,1299,5:14.305.167,7.840.200 ms,1 B,,SP,72,Read Transaction,50*
0,1300,5:14.314.794,2.173.100 ms,1 B,,SP,68,Read Transaction,01*
0,1301,5:14.317.054,88.900 us,1 B,,SP,68,Write Transaction,02
0,1302,5:14.317.361,126.300 us,1 B,,S,72,Write Transaction,03
0,1303,5:14.317.487,183.000 us,1 B,,SP,72,Read Transaction,50*
0,1304,5:14.319.899,215.800 us,1 B,,SP,68,Read Transaction,02*
0,1305,5:14.320.179,90.800 us,1 B,,SP,68,Write Transaction,03
0,1306,5:14.320.412,128.000 us,1 B,,S,72,Write Transaction,03
0,1307,5:14.320.540,197.500 us,1 B,,SP,72,Read Transaction,50*
0,1308,5:14.326.885,8.429.800 ms,1 B,,SP,68,Read Transaction,03*
0,1309,5:14.335.415,5.653.900 ms,1 B,,SP,68,Write Transaction,04
0,1310,5:14.349.242,640.900 us,1 B,,S,72,Write Transaction,03
0,1311,5:14.349.883,177.300 us,1 B,,SP,72,Read Transaction,50*
0,1312,5:14.351.973,152.000 us,1 B,,SP,68,Read Transaction,04*
0,1313,5:14.352.175,92.900 us,1 B,,SP,68,Write Transaction,05
0,1314,5:14.352.488,8.579.500 ms,1 B,,S,72,Write Transaction,03
0,1315,5:14.361.068,8.030.900 ms,1 B,,SP,72,Read Transaction,50*
0,1316,5:14.371.058,136.600 us,1 B,,SP,68,Read Transaction,05*
0,1317,5:14.371.244,87.200 us,1 B,,SP,68,Write Transaction,06
0,1318,5:14.371.469,316.700 us,1 B,,S,72,Write Transaction,03
0,1319,5:14.371.785,157.100 us,1 B,,SP,72,Read Transaction,50*
0,1320,5:14.374.038,136.700 us,1 B,,SP,68,Read Transaction,06*
0,1321,5:14.374.219,114.500 us,1 B,,SP,68,Write Transaction,07
0,1322,5:14.374.458,120.400 us,1 B,,S,72,Write Transaction,03
0,1323,5:14.374.579,133.100 us,1 B,,SP,72,Read Transaction,50*
0,1324,5:14.376.169,110.300 us,1 B,,SP,1B,Read Transaction,40*
0,1325,5:14.376.312,109.900 us,1 B,,SP,1C,Read Transaction,BF*
0,1326,5:14.378.445,1.172.900 ms,1 B,,SP,68,Read Transaction,07*
0,1327,5:14.379.709,18.060.700 ms,150 B,,SP,5A,Read Transaction,FD 0C 31 00 00 00 06 00 6B B9 47 5A 96 6E FF FF FF FF FF FF FF FF FF FF FF FF FF FF FF FF FF FF FF FF FF FF FF FF FF FF FF FF FF FF FF FF FF FF FF FF FF FF FF FF FF FF FF FF FF FF FF FF FF FF FF FF FF FF FF FF FF FF FF FF FF FF FF FF FF FF FF FF FF FF FF FF FF FF FF FF FF FF FF FF FF FF FF FF FF FF FF FF FF FF FF FF FF FF FF FF FF FF FF FF FF FF FF FF FF FF FF FF FF FF FF FF FF FF FF FF FF FF FF FF FF FF FF FF FF FF FF FF FF FF FF FF FF FF FF FF*
0,1328,5:14.400.425,159.200 us,1 B,,SP,68,Read Transaction,07*
0,1329,5:14.400.635,19.775.500 ms,5 B,,SP,5A,Write Transaction,FD 03 A1 31 2E
0,1330,5:14.436.644,269.600 us,1 B,,SP,68,Read Transaction,07*
0,1331,5:14.436.979,90.600 us,1 B,,SP,68,Write Transaction,01
0,1332,5:14.437.200,18.390.800 ms,4 B,,SP,5A,Write Transaction,FD 02 31 CF
0,1333,5:14.482.464,7.688.400 ms,1 B,,SP,68,Read Transaction,01*
0,1334,5:14.490.247,92.400 us,1 B,,SP,68,Write Transaction,02
0,1335,5:14.490.463,20.400.200 ms,14 B,,SP,5A,Write Transaction,FD 0C 30 00 00 00 06 00 66 88 8A DC 45 31
0,1336,5:14.527.806,136.500 us,1 B,,SP,68,Read Transaction,02*
0,1337,5:14.527.987,85.800 us,1 B,,SP,68,Write Transaction,05
0,1338,5:14.528.187,16.745.000 ms,4 B,,SP,5A,Write Transaction,FD 02 31 CF
0,1339,5:14.560.561,161.900 us,1 B,,SP,68,Read Transaction,05*
0,1340,5:14.560.778,170.600 us,1 B,,SP,68,Write Transaction,06
0,1341,5:14.561.231,19.915.400 ms,14 B,,SP,5A,Write Transaction,FD 0C 30 00 00 00 06 00 66 88 8A DC 45 31
0,1342,5:16.679.734,210.300 us,1 B,,SP,68,Read Transaction,06*
0,1343,5:16.680.134,112.900 us,1 B,,SP,68,Write Transaction,01
0,1344,5:16.680.562,110.000 us,1 B,,S,72,Write Transaction,03
0,1345,5:16.680.672,205.900 us,1 B,,SP,72,Read Transaction,50*
0,1346,5:16.683.692,208.300 us,1 B,,SP,68,Read Transaction,01*
0,1347,5:16.683.965,110.600 us,1 B,,SP,68,Write Transaction,02
0,1348,5:16.684.371,119.300 us,1 B,,S,72,Write Transaction,03
0,1349,5:16.684.490,261.700 us,1 B,,SP,72,Read Transaction,50*
0,1350,5:16.687.572,197.100 us,1 B,,SP,68,Read Transaction,02*
0,1351,5:16.687.839,135.200 us,1 B,,SP,68,Write Transaction,03
0,1352,5:16.688.368,160.300 us,1 B,,S,72,Write Transaction,03
0,1353,5:16.688.529,282.400 us,1 B,,SP,72,Read Transaction,50*
0,1354,5:16.697.815,142.100 us,1 B,,SP,68,Read Transaction,03*
0,1355,5:16.698.010,91.600 us,1 B,,SP,68,Write Transaction,04
0,1356,5:16.698.246,121.600 us,1 B,,S,72,Write Transaction,03
0,1357,5:16.698.368,135.700 us,1 B,,SP,72,Read Transaction,50*
0,1358,5:16.700.941,141.100 us,1 B,,SP,68,Read Transaction,04*
0,1359,5:16.701.234,117.300 us,1 B,,SP,68,Write Transaction,05
0,1360,5:16.701.482,120.600 us,1 B,,S,72,Write Transaction,03
0,1361,5:16.701.602,185.300 us,1 B,,SP,72,Read Transaction,50*
0,1362,5:16.704.208,139.200 us,1 B,,SP,68,Read Transaction,05*
0,1363,5:16.704.393,93.900 us,1 B,,SP,68,Write Transaction,06
0,1364,5:16.704.633,129.000 us,1 B,,S,72,Write Transaction,03
0,1365,5:16.704.762,135.100 us,1 B,,SP,72,Read Transaction,50*
0,1366,5:16.709.439,159.300 us,1 B,,SP,68,Read Transaction,06*
0,1367,5:16.709.676,151.700 us,1 B,,SP,68,Write Transaction,07
0,1368,5:16.710.010,123.600 us,1 B,,S,72,Write Transaction,03
0,1369,5:16.710.134,137.400 us,1 B,,SP,72,Read Transaction,50*
0,1370,5:16.714.767,2.497.900 ms,1 B,,SP,1B,Read Transaction,33*
0,1371,5:16.717.340,119.700 us,1 B,,SP,1C,Read Transaction,CC*
0,1372,5:16.721.279,140.500 us,1 B,,SP,68,Read Transaction,07*
0,1373,5:16.721.474,114.100 us,1 B,,SP,68,Write Transaction,01
0,1374,5:16.721.805,22.833.900 ms,150 B,,SP,5A,Read Transaction,FD 0C 31 00 00 00 06 00 6B B9 47 5A 96 6E FF FF FF FF FF FF FF FF FF FF FF FF FF FF FF FF FF FF FF FF FF FF FF FF FF FF FF FF FF FF FF FF FF FF FF FF FF FF FF FF FF FF FF FF FF FF FF FF FF FF FF FF FF FF FF FF FF FF FF FF FF FF FF FF FF FF FF FF FF FF FF FF FF FF FF FF FF FF FF FF FF FF FF FF FF FF FF FF FF FF FF FF FF FF FF FF FF FF FF FF FF FF FF FF FF FF FF FF FF FF FF FF FF FF FF FF FF FF FF FF FF FF FF FF FF FF FF FF FF FF FF FF FF FF FF FF*
0,1375,5:16.747.249,279.400 us,1 B,,SP,68,Read Transaction,01*
0,1376,5:16.747.593,16.441.300 ms,5 B,,SP,5A,Write Transaction,FD 03 A1 31 2E
0,1377,5:16.781.452,513.300 us,1 B,,SP,68,Read Transaction,01*
0,1378,5:16.782.105,98.000 us,1 B,,SP,68,Write Transaction,02
0,1379,5:16.782.358,25.077.800 ms,150 B,,SP,5A,Read Transaction,FD 02 30 D0 FF FF FF FF FF FF FF FF FF FF FF FF FF FF FF FF FF FF FF FF FF FF FF FF FF FF FF FF FF FF FF FF FF FF FF FF FF FF FF FF FF FF FF FF FF FF FF FF FF FF FF FF FF FF FF FF FF FF FF FF FF FF FF FF FF FF FF FF FF FF FF FF FF FF FF FF FF FF FF FF FF FF FF FF FF FF FF FF FF FF FF FF FF FF FF FF FF FF FF FF FF FF FF FF FF FF FF FF FF FF FF FF FF FF FF FF FF FF FF FF FF FF FF FF FF FF FF FF FF FF FF FF FF FF FF FF FF FF FF FF FF FF FF FF FF FF*
0,1380,5:16.810.061,137.800 us,1 B,,SP,68,Read Transaction,02*
0,1381,5:16.810.236,19.510.200 ms,5 B,,SP,5A,Write Transaction,FD 03 A1 30 2F
0,1382,5:16.845.448,347.200 us,1 B,,SP,68,Read Transaction,02*
0,1383,5:16.846.369,407.200 us,1 B,,SP,68,Write Transaction,05
0,1384,5:16.847.038,22.853.600 ms,150 B,,SP,5A,Read Transaction,FD 0C 31 00 00 00 06 00 6B B9 47 5A 96 6E FF FF FF FF FF FF FF FF FF FF FF FF FF FF FF FF FF FF FF FF FF FF FF FF FF FF FF FF FF FF FF FF FF FF FF FF FF FF FF FF FF FF FF FF FF FF FF FF FF FF FF FF FF FF FF FF FF FF FF FF FF FF FF FF FF FF FF FF FF FF FF FF FF FF FF FF FF FF FF FF FF FF FF FF FF FF FF FF FF FF FF FF FF FF FF FF FF FF FF FF FF FF FF FF FF FF FF FF FF FF FF FF FF FF FF FF FF FF FF FF FF FF FF FF FF FF FF FF FF FF FF FF FF FF FF FF*
0,1385,5:16.873.774,2.883.700 ms,1 B,,SP,68,Read Transaction,05*
0,1386,5:16.877.006,20.420.400 ms,5 B,,SP,5A,Write Transaction,FD 03 A1 31 2E
0,1387,5:16.915.343,1.640.700 ms,1 B,,SP,68,Read Transaction,05*
0,1388,5:16.917.263,104.800 us,1 B,,SP,68,Write Transaction,06
0,1389,5:16.917.508,12.991.600 ms,150 B,,SP,5A,Read Transaction,FD 02 30 D0 FF FF FF FF FF FF FF FF FF FF FF FF FF FF FF FF FF FF FF FF FF FF FF FF FF FF FF FF FF FF FF FF FF FF FF FF FF FF FF FF FF FF FF FF FF FF FF FF FF FF FF FF FF FF FF FF FF FF FF FF FF FF FF FF FF FF FF FF FF FF FF FF FF FF FF FF FF FF FF FF FF FF FF FF FF FF FF FF FF FF FF FF FF FF FF FF FF FF FF FF FF FF FF FF FF FF FF FF FF FF FF FF FF FF FF FF FF FF FF FF FF FF FF FF FF FF FF FF FF FF FF FF FF FF FF FF FF FF FF FF FF FF FF FF FF FF*
0,1390,5:16.933.941,1.167.200 ms,1 B,,SP,68,Read Transaction,06*
0,1391,5:16.935.188,251.600 us,5 B,,SP,5A,Write Transaction,FD 03 A1 30 2F
0,1392,5:16.984.814,192.400 us,1 B,,SP,68,Read Transaction,06*
0,1393,5:16.985.061,164.800 us,1 B,,SP,68,Write Transaction,07
0,1394,5:16.985.581,3.052.900 ms,92 B,,SP,5A,Write Transaction,FD 5A 30 00 00 00 54 00 02 66 65 38 30 3A 3A 35 65 66 33 3A 66 63 66 66 3A 66 65 32 35 3A 64 38 62 30 00 00 00 00 00 00 00 00 00 00 00 00 00 00 00 36 32 31 34 00 00 B1 E1 53 E4 A1 74 6D 0C 80 12 24 36 56 96 2D 21 74 E1 4A 2D A7 96 CC 18 40 B8 3B 2C E5 56 06 32 F1 A7 5B 56 AB
0,1395,5:19.065.671,130.600 us,1 B,,SP,68,Read Transaction,07*
0,1396,5:19.065.928,339.100 us,1 B,,SP,68,Write Transaction,01
0,1397,5:19.066.664,138.800 us,1 B,,S,72,Write Transaction,03
0,1398,5:19.066.802,173.200 us,1 B,,SP,72,Read Transaction,50*
0,1399,5:19.072.667,168.300 us,1 B,,SP,68,Read Transaction,01*
0,1400,5:19.072.900,87.100 us,1 B,,SP,68,Write Transaction,02
0,1401,5:19.073.136,211.800 us,1 B,,S,72,Write Transaction,03
0,1402,5:19.073.347,8.348.000 ms,1 B,,SP,72,Read Transaction,50*
0,1403,5:19.092.497,365.700 us,1 B,,SP,68,Read Transaction,02*
0,1404,5:19.092.948,111.600 us,1 B,,SP,68,Write Transaction,03
0,1405,5:19.093.217,146.100 us,1 B,,S,72,Write Transaction,03
0,1406,5:19.093.363,267.600 us,1 B,,SP,72,Read Transaction,50*
0,1407,5:19.098.090,129.100 us,1 B,,SP,68,Read Transaction,03*
0,1408,5:19.098.336,91.500 us,1 B,,SP,68,Write Transaction,04
0,1409,5:19.113.748,3.745.400 ms,1 B,,S,72,Write Transaction,03
0,1410,5:19.117.493,177.300 us,1 B,,SP,72,Read Transaction,50*
0,1411,5:19.123.989,151.000 us,1 B,,SP,68,Read Transaction,04*
0,1412,5:19.124.205,89.400 us,1 B,,SP,68,Write Transaction,05
0,1413,5:19.124.471,140.100 us,1 B,,S,72,Write Transaction,03
0,1414,5:19.124.611,135.100 us,1 B,,SP,72,Read Transaction,50*
0,1415,5:19.141.821,3.741.300 ms,1 B,,SP,68,Read Transaction,05*
0,1416,5:19.145.676,112.500 us,1 B,,SP,68,Write Transaction,06
0,1417,5:19.146.269,241.500 us,1 B,,S,72,Write Transaction,03
0,1418,5:19.146.510,208.900 us,1 B,,SP,72,Read Transaction,50*
0,1419,5:19.179.543,149.200 us,1 B,,SP,68,Read Transaction,06*
0,1420,5:19.179.745,93.700 us,1 B,,SP,68,Write Transaction,07
0,1421,5:19.179.991,414.800 us,1 B,,S,72,Write Transaction,03
0,1422,5:19.180.406,941.200 us,1 B,,SP,72,Read Transaction,50*
0,1423,5:19.206.242,11.321.400 ms,1 B,,SP,1B,Read Transaction,40*
0,1424,5:19.217.646,119.900 us,1 B,,SP,1C,Read Transaction,BF*
0,1425,5:19.258.070,140.100 us,1 B,,SP,68,Read Transaction,07*
0,1426,5:19.258.281,8.107.100 ms,150 B,,SP,5A,Read Transaction,FD 02 30 D0 FF FF FF FF FF FF FF FF FF FF FF FF FF FF FF FF FF FF FF FF FF FF FF FF FF FF FF FF FF FF FF FF FF FF FF FF FF FF FF FF FF FF FF FF FF FF FF FF FF FF FF FF FF FF FF FF FF FF FF FF FF FF FF FF FF FF FF FF FF FF FF FF FF FF FF FF FF FF FF FF FF FF FF FF FF FF FF FF FF FF FF FF FF FF FF FF FF FF FF FF FF FF FF FF FF FF FF FF FF FF FF FF FF FF FF FF FF FF FF FF FF FF FF FF FF FF FF FF FF FF FF FF FF FF FF FF FF FF FF FF FF FF FF FF FF FF*
0,1427,5:19.273.662,199.200 us,1 B,,SP,68,Read Transaction,07*
0,1428,5:19.273.992,19.081.700 ms,5 B,,SP,5A,Write Transaction,FD 03 A1 30 2F
0,1429,5:21.702.475,191.400 us,1 B,,SP,19,Read Transaction,00*
0,1430,5:21.702.761,113.600 us,1 B,,SP,1A,Read Transaction,00*
0,1431,5:22.072.872,177.400 us,1 B,,SP,68,Read Transaction,07*
0,1432,5:22.073.097,86.500 us,1 B,,SP,68,Write Transaction,01
0,1433,5:22.073.315,3.797.400 ms,92 B,,SP,5A,Write Transaction,FD 5A 30 00 00 00 54 00 02 66 65 38 30 3A 3A 35 65 66 33 3A 66 63 66 66 3A 66 65 32 35 3A 64 38 62 30 00 00 00 00 00 00 00 00 00 00 00 00 00 00 00 36 32 30 38 00 00 0E 63 A5 E5 FA 70 3F 0B C5 1E 33 87 67 21 B6 A8 A1 D5 D8 86 98 92 34 FA 95 1F DB 8B 46 1D F0 F1 43 BC E6 D4 B8
0,1434,5:22.102.221,877.100 us,1 B,,SP,68,Read Transaction,01*
0,1435,5:22.103.189,88.700 us,1 B,,SP,68,Write Transaction,02
0,1436,5:22.103.488,219.500 us,4 B,,SP,5A,Write Transaction,FD 02 31 CF
0,1437,5:22.148.429,198.500 us,1 B,,SP,68,Read Transaction,02*
0,1438,5:22.148.688,96.900 us,1 B,,SP,68,Write Transaction,03
0,1439,5:22.148.920,586.300 us,14 B,,SP,5A,Write Transaction,FD 0C 30 00 00 00 06 00 66 88 8A DC 45 31
0,1440,5:22.166.152,636.500 us,1 B,,SP,68,Read Transaction,03*
0,1441,5:22.169.410,281.000 us,1 B,,SP,68,Write Transaction,05
0,1442,5:22.170.067,8.786.100 ms,92 B,,SP,5A,Write Transaction,FD 5A 30 00 00 00 54 00 02 66 65 38 30 3A 3A 35 65 66 33 3A 66 63 66 66 3A 66 65 32 35 3A 64 38 62 30 00 00 00 00 00 00 00 00 00 00 00 00 00 00 00 36 32 31 32 00 00 B4 78 57 78 75 59 25 01 2D 2A 8F CD 80 41 27 89 79 18 7B BA 85 91 1E E8 77 D4 E0 E5 ED 32 C1 1F BF F8 5F 45 D3
0,1443,5:22.198.809,138.900 us,1 B,,SP,68,Read Transaction,05*
0,1444,5:22.199.019,171.600 us,1 B,,SP,68,Write Transaction,06
0,1445,5:22.199.445,228.000 us,4 B,,SP,5A,Write Transaction,FD 02 31 CF
0,1446,5:22.219.519,267.900 us,1 B,,SP,68,Read Transaction,06*
0,1447,5:22.219.875,180.800 us,1 B,,SP,68,Write Transaction,07
0,1448,5:22.220.179,228.100 us,4 B,,SP,5A,Write Transaction,FD 02 31 CF
0,1449,5:24.345.312,140.400 us,1 B,,SP,68,Read Transaction,07*
0,1450,5:24.345.495,87.000 us,1 B,,SP,68,Write Transaction,01
0,1451,5:24.345.718,121.900 us,1 B,,S,72,Write Transaction,03
0,1452,5:24.345.840,137.600 us,1 B,,SP,72,Read Transaction,50*
0,1453,5:24.348.458,139.800 us,1 B,,SP,68,Read Transaction,01*
0,1454,5:24.348.646,88.800 us,1 B,,SP,68,Write Transaction,02
0,1455,5:24.348.867,118.900 us,1 B,,S,72,Write Transaction,03
0,1456,5:24.348.985,137.200 us,1 B,,SP,72,Read Transaction,50*
0,1457,5:24.353.720,140.800 us,1 B,,SP,68,Read Transaction,02*
0,1458,5:24.353.914,175.900 us,1 B,,SP,68,Write Transaction,03
0,1459,5:24.355.268,708.000 us,1 B,,S,72,Write Transaction,03
0,1460,5:24.355.976,213.500 us,1 B,,SP,72,Read Transaction,50*
0,1461,5:24.493.397,322.000 us,1 B,,SP,68,Read Transaction,03*
0,1462,5:24.493.788,89.000 us,1 B,,SP,68,Write Transaction,04
0,1463,5:24.494.071,131.600 us,1 B,,S,72,Write Transaction,03
0,1464,5:24.494.203,135.800 us,1 B,,SP,72,Read Transaction,50*
0,1465,5:24.496.789,136.700 us,1 B,,SP,68,Read Transaction,04*
0,1466,5:24.496.969,91.800 us,1 B,,SP,68,Write Transaction,05
0,1467,5:24.497.213,123.900 us,1 B,,S,72,Write Transaction,03
0,1468,5:24.497.337,132.900 us,1 B,,SP,72,Read Transaction,50*
0,1469,5:24.499.902,137.400 us,1 B,,SP,68,Read Transaction,05*
0,1470,5:24.500.083,87.200 us,1 B,,SP,68,Write Transaction,06
0,1471,5:24.500.312,125.300 us,1 B,,S,72,Write Transaction,03
0,1472,5:24.500.438,238.200 us,1 B,,SP,72,Read Transaction,50*
0,1473,5:24.503.115,238.300 us,1 B,,SP,68,Read Transaction,06*
0,1474,5:24.503.412,86.600 us,1 B,,SP,68,Write Transaction,07
0,1475,5:24.503.612,118.000 us,1 B,,S,72,Write Transaction,03
0,1476,5:24.503.730,131.300 us,1 B,,SP,72,Read Transaction,50*
0,1477,5:24.510.484,106.900 us,1 B,,SP,1B,Read Transaction,77*
0,1478,5:24.510.620,104.400 us,1 B,,SP,1C,Read Transaction,88*
0,1479,5:26.779.409,206.800 us,1 B,,SP,68,Read Transaction,07*
0,1480,5:26.779.676,104.000 us,1 B,,SP,68,Write Transaction,01
0,1481,5:26.779.924,5.414.300 ms,150 B,,SP,5A,Read Transaction,FD 02 30 D0 FF FF FF FF FF FF FF FF FF FF FF FF FF FF FF FF FF FF FF FF FF FF FF FF FF FF FF FF FF FF FF FF FF FF FF FF FF FF FF FF FF FF FF FF FF FF FF FF FF FF FF FF FF FF FF FF FF FF FF FF FF FF FF FF FF FF FF FF FF FF FF FF FF FF FF FF FF FF FF FF FF FF FF FF FF FF FF FF FF FF FF FF FF FF FF FF FF FF FF FF FF FF FF FF FF FF FF FF FF FF FF FF FF FF FF FF FF FF FF FF FF FF FF FF FF FF FF FF FF FF FF FF FF FF FF FF FF FF FF FF FF FF FF FF FF FF*
0,1482,5:26.788.544,186.100 us,1 B,,SP,68,Read Transaction,01*
0,1483,5:26.788.776,257.600 us,5 B,,SP,5A,Write Transaction,FD 03 A1 30 2F
0,1484,5:26.805.460,386.500 us,1 B,,SP,68,Read Transaction,01*
0,1485,5:26.805.913,88.000 us,1 B,,SP,68,Write Transaction,02
0,1486,5:26.806.144,4.960.500 ms,150 B,,SP,5A,Read Transaction,FD 0C 31 00 00 00 06 00 6B B9 47 5A 96 6E FF FF FF FF FF FF FF FF FF FF FF FF FF FF FF FF FF FF FF FF FF FF FF FF FF FF FF FF FF FF FF FF FF FF FF FF FF FF FF FF FF FF FF FF FF FF FF FF FF FF FF FF FF FF FF FF FF FF FF FF FF FF FF FF FF FF FF FF FF FF FF FF FF FF FF FF FF FF FF FF FF FF FF FF FF FF FF FF FF FF FF FF FF FF FF FF FF FF FF FF FF FF FF FF FF FF FF FF FF FF FF FF FF FF FF FF FF FF FF FF FF FF FF FF FF FF FF FF FF FF FF FF FF FF FF FF*
0,1487,5:26.813.774,164.600 us,1 B,,SP,68,Read Transaction,02*
0,1488,5:26.813.988,18.672.600 ms,5 B,,SP,5A,Write Transaction,FD 03 A1 31 2E
0,1489,5:26.849.921,4.517.700 ms,1 B,,SP,68,Read Transaction,02*
0,1490,5:26.854.907,908.900 us,1 B,,SP,68,Write Transaction,03
0,1491,5:26.856.708,5.032.300 ms,150 B,,SP,5A,Read Transaction,FD 03 AD 01 52 FF FF FF FF FF FF FF FF FF FF FF FF FF FF FF FF FF FF FF FF FF FF FF FF FF FF FF FF FF FF FF FF FF FF FF FF FF FF FF FF FF FF FF FF FF FF FF FF FF FF FF FF FF FF FF FF FF FF FF FF FF FF FF FF FF FF FF FF FF FF FF FF FF FF FF FF FF FF FF FF FF FF FF FF FF FF FF FF FF FF FF FF FF FF FF FF FF FF FF FF FF FF FF FF FF FF FF FF FF FF FF FF FF FF FF FF FF FF FF FF FF FF FF FF FF FF FF FF FF FF FF FF FF FF FF FF FF FF FF FF FF FF FF FF FF*
0,1492,5:26.864.510,234.000 us,1 B,,SP,68,Read Transaction,03*
0,1493,5:26.864.802,17.801.800 ms,5 B,,SP,5A,Write Transaction,FD 03 A1 AD B2
0,1494,5:28.029.577,180.200 us,1 B,,SP,68,Read Transaction,03*
0,1495,5:28.029.815,90.900 us,1 B,,SP,68,Write Transaction,05
0,1496,5:28.030.036,5.616.600 ms,150 B,,SP,5A,Read Transaction,FD 02 30 D0 FF FF FF FF FF FF FF FF FF FF FF FF FF FF FF FF FF FF FF FF FF FF FF FF FF FF FF FF FF FF FF FF FF FF FF FF FF FF FF FF FF FF FF FF FF FF FF FF FF FF FF FF FF FF FF FF FF FF FF FF FF FF FF FF FF FF FF FF FF FF FF FF FF FF FF FF FF FF FF FF FF FF FF FF FF FF FF FF FF FF FF FF FF FF FF FF FF FF FF FF FF FF FF FF FF FF FF FF FF FF FF FF FF FF FF FF FF FF FF FF FF FF FF FF FF FF FF FF FF FF FF FF FF FF FF FF FF FF FF FF FF FF FF FF FF FF*
0,1497,5:28.038.759,355.300 us,1 B,,SP,68,Read Transaction,05*
0,1498,5:28.039.167,19.500.000 ms,5 B,,SP,5A,Write Transaction,FD 03 A1 30 2F
0,1499,5:28.074.830,165.900 us,1 B,,SP,68,Read Transaction,05*
0,1500,5:28.075.063,123.700 us,1 B,,SP,68,Write Transaction,06
0,1501,5:28.075.331,4.957.900 ms,150 B,,SP,5A,Read Transaction,FD 0C 31 00 00 00 06 00 6B B9 47 5A 96 6E FF FF FF FF FF FF FF FF FF FF FF FF FF FF FF FF FF FF FF FF FF FF FF FF FF FF FF FF FF FF FF FF FF FF FF FF FF FF FF FF FF FF FF FF FF FF FF FF FF FF FF FF FF FF FF FF FF FF FF FF FF FF FF FF FF FF FF FF FF FF FF FF FF FF FF FF FF FF FF FF FF FF FF FF FF FF FF FF FF FF FF FF FF FF FF FF FF FF FF FF FF FF FF FF FF FF FF FF FF FF FF FF FF FF FF FF FF FF FF FF FF FF FF FF FF FF FF FF FF FF FF FF FF FF FF FF*
0,1502,5:28.082.959,141.200 us,1 B,,SP,68,Read Transaction,06*
0,1503,5:28.083.149,19.607.900 ms,5 B,,SP,5A,Write Transaction,FD 03 A1 31 2E
0,1504,5:28.124.437,139.000 us,1 B,,SP,68,Read Transaction,06*
0,1505,5:28.124.621,86.700 us,1 B,,SP,68,Write Transaction,07
0,1506,5:28.124.838,4.964.500 ms,150 B,,SP,5A,Read Transaction,FD 10 31 00 00 00 0A 00 67 00 00 01 2C FD 04 C0 41 2F FF FF FF FF FF FF FF FF FF FF FF FF FF FF FF FF FF FF FF FF FF FF FF FF FF FF FF FF FF FF FF FF FF FF FF FF FF FF FF FF FF FF FF FF FF FF FF FF FF FF FF FF FF FF FF FF FF FF FF FF FF FF FF FF FF FF FF FF FF FF FF FF FF FF FF FF FF FF FF FF FF FF FF FF FF FF FF FF FF FF FF FF FF FF FF FF FF FF FF FF FF FF FF FF FF FF FF FF FF FF FF FF FF FF FF FF FF FF FF FF FF FF FF FF FF FF FF FF FF FF FF FF*
0,1507,5:28.132.432,151.000 us,1 B,,SP,68,Read Transaction,07*
0,1508,5:28.132.639,18.220.900 ms,5 B,,SP,5A,Write Transaction,FD 03 A1 31 2E
0,1509,5:28.242.798,138.400 us,1 B,,SP,68,Read Transaction,07*
0,1510,5:28.242.984,87.900 us,1 B,,SP,68,Write Transaction,01
0,1511,5:28.243.238,288.800 us,4 B,,SP,5A,Write Transaction,FD 02 31 CF
0,1512,5:30.313.183,147.400 us,1 B,,SP,68,Read Transaction,01*
0,1513,5:30.313.379,251.000 us,1 B,,S,72,Write Transaction,03
0,1514,5:30.313.630,195.300 us,1 B,,SP,72,Read Transaction,50*
0,1515,5:30.324.903,1.627.900 ms,1 B,,SP,68,Read Transaction,01*
0,1516,5:30.326.652,133.700 us,1 B,,SP,68,Write Transaction,02
0,1517,5:30.326.982,129.900 us,1 B,,S,72,Write Transaction,03
0,1518,5:30.327.112,137.500 us,1 B,,SP,72,Read Transaction,50*
0,1519,5:30.338.110,876.800 us,1 B,,SP,68,Read Transaction,02*
0,1520,5:30.339.713,1.321.800 ms,1 B,,SP,68,Write Transaction,03
0,1521,5:30.341.538,136.100 us,1 B,,S,72,Write Transaction,03
0,1522,5:30.341.674,137.700 us,1 B,,SP,72,Read Transaction,50*
0,1523,5:30.368.259,979.600 us,1 B,,SP,68,Read Transaction,03*
0,1524,5:30.369.387,93.700 us,1 B,,SP,68,Write Transaction,04
0,1525,5:30.369.616,120.700 us,1 B,,S,72,Write Transaction,03
0,1526,5:30.369.737,136.200 us,1 B,,SP,72,Read Transaction,50*
0,1527,5:30.376.625,223.100 us,1 B,,SP,68,Read Transaction,04*
0,1528,5:30.376.907,90.600 us,1 B,,SP,68,Write Transaction,05
0,1529,5:30.377.115,120.700 us,1 B,,S,72,Write Transaction,03
0,1530,5:30.377.236,136.000 us,1 B,,SP,72,Read Transaction,50*
0,1531,5:30.402.070,136.900 us,1 B,,SP,68,Read Transaction,05*
0,1532,5:30.402.256,88.400 us,1 B,,SP,68,Write Transaction,06
0,1533,5:30.402.486,120.900 us,1 B,,S,72,Write Transaction,03
0,1534,5:30.402.607,194.300 us,1 B,,SP,72,Read Transaction,50*
0,1535,5:30.405.449,145.400 us,1 B,,SP,68,Read Transaction,06*
0,1536,5:30.405.650,93.600 us,1 B,,SP,68,Write Transaction,07
0,1537,5:30.405.902,593.600 us,1 B,,S,72,Write Transaction,03
0,1538,5:30.406.496,171.800 us,1 B,,SP,72,Read Transaction,50*
0,1539,5:30.415.529,1.603.700 ms,1 B,,SP,1B,Read Transaction,01*
0,1540,5:30.417.216,3.317.100 ms,1 B,,SP,1C,Read Transaction,FE*
0,1541,5:30.592.684,2.569.500 ms,1 B,,SP,68,Read Transaction,07*
0,1542,5:30.597.521,108.100 us,1 B,,SP,68,Write Transaction,01
0,1543,5:30.597.766,27.942.300 ms,150 B,,SP,5A,Read Transaction,FD 10 31 00 00 00 0A 00 67 00 00 01 2C FD 04 C0 41 2F FF FF FF FF FF FF FF FF FF FF FF FF FF FF FF FF FF FF FF FF FF FF FF FF FF FF FF FF FF FF FF FF FF FF FF FF FF FF FF FF FF FF FF FF FF FF FF FF FF FF FF FF FF FF FF FF FF FF FF FF FF FF FF FF FF FF FF FF FF FF FF FF FF FF FF FF FF FF FF FF FF FF FF FF FF FF FF FF FF FF FF FF FF FF FF FF FF FF FF FF FF FF FF FF FF FF FF FF FF FF FF FF FF FF FF FF FF FF FF FF FF FF FF FF FF FF FF FF FF FF FF FF*
0,1544,5:30.639.579,4.723.300 ms,1 B,,SP,68,Read Transaction,01*
0,1545,5:30.644.605,17.691.100 ms,5 B,,SP,5A,Write Transaction,FD 03 A1 31 2E
0,1546,5:30.683.072,2.056.800 ms,1 B,,SP,68,Read Transaction,01*
0,1547,5:30.685.233,293.500 us,1 B,,SP,68,Write Transaction,02
0,1548,5:30.685.756,4.263.000 ms,92 B,,SP,5A,Write Transaction,FD 5A 30 00 00 00 54 00 02 66 65 38 30 3A 3A 35 65 66 33 3A 66 63 66 66 3A 66 65 32 35 3A 64 38 62 30 00 00 00 00 00 00 00 00 00 00 00 00 00 00 00 36 32 30 39 00 00 C8 0D A8 A6 8F 55 DB 02 C4 C5 40 09 D1 92 3E 3C 96 BB 98 25 9D 40 06 03 CD 5B 74 50 56 F5 3A 18 2F 84 3C D1 5C
0,1549,5:30.705.895,167.900 us,1 B,,SP,68,Read Transaction,02*
0,1550,5:30.706.116,733.000 us,1 B,,SP,68,Write Transaction,05
0,1551,5:30.707.143,236.000 us,4 B,,SP,5A,Write Transaction,FD 02 31 CF
0,1552,5:32.771.471,142.500 us,1 B,,SP,68,Read Transaction,05*
0,1553,5:32.771.667,94.200 us,1 B,,SP,68,Write Transaction,01
0,1554,5:32.771.913,127.000 us,1 B,,S,72,Write Transaction,03
0,1555,5:32.772.040,145.200 us,1 B,,SP,72,Read Transaction,50*
0,1556,5:32.781.787,135.900 us,1 B,,SP,68,Read Transaction,01*
0,1557,5:32.781.975,91.600 us,1 B,,SP,68,Write Transaction,02
0,1558,5:32.782.210,122.000 us,1 B,,S,72,Write Transaction,03
0,1559,5:32.782.332,175.700 us,1 B,,SP,72,Read Transaction,50*
0,1560,5:32.789.723,142.200 us,1 B,,SP,68,Read Transaction,02*
0,1561,5:32.789.918,90.700 us,1 B,,SP,68,Write Transaction,03
0,1562,5:32.790.159,126.000 us,1 B,,S,72,Write Transaction,03
0,1563,5:32.790.285,285.600 us,1 B,,SP,72,Read Transaction,50*
0,1564,5:32.800.081,140.900 us,1 B,,SP,68,Read Transaction,03*
0,1565,5:32.800.269,87.400 us,1 B,,SP,68,Write Transaction,04
0,1566,5:32.800.499,125.700 us,1 B,,S,72,Write Transaction,03
0,1567,5:32.800.625,143.200 us,1 B,,SP,72,Read Transaction,50*
0,1568,5:32.803.263,142.000 us,1 B,,SP,68,Read Transaction,04*
0,1569,5:32.803.455,100.100 us,1 B,,SP,68,Write Transaction,05
0,1570,5:32.803.829,1.005.700 ms,1 B,,S,72,Write Transaction,03
0,1571,5:32.804.835,196.900 us,1 B,,SP,72,Read Transaction,50*
0,1572,5:32.807.516,7.910.200 ms,1 B,,SP,68,Read Transaction,05*
0,1573,5:32.815.535,100.100 us,1 B,,SP,68,Write Transaction,06
0,1574,5:32.815.776,133.200 us,1 B,,S,72,Write Transaction,03
0,1575,5:32.815.909,135.000 us,1 B,,SP,72,Read Transaction,50*
0,1576,5:32.861.036,135.000 us,1 B,,SP,68,Read Transaction,06*
0,1577,5:32.861.222,116.100 us,1 B,,SP,68,Write Transaction,07
0,1578,5:32.861.657,167.400 us,1 B,,S,72,Write Transaction,03
0,1579,5:32.861.825,140.100 us,1 B,,SP,72,Read Transaction,50*
0,1580,5:32.863.702,107.400 us,1 B,,SP,1B,Read Transaction,12*
0,1581,5:32.863.841,111.500 us,1 B,,SP,1C,Read Transaction,ED*
0,1582,5:32.864.886,173.000 us,1 B,,SP,68,Read Transaction,07*
0,1583,5:32.865.112,92.000 us,1 B,,SP,68,Write Transaction,02
0,1584,5:32.865.469,4.962.300 ms,150 B,,SP,5A,Read Transaction,FD 02 30 D0 FF FF FF FF FF FF FF FF FF FF FF FF FF FF FF FF FF FF FF FF FF FF FF FF FF FF FF FF FF FF FF FF FF FF FF FF FF FF FF FF FF FF FF FF FF FF FF FF FF FF FF FF FF FF FF FF FF FF FF FF FF FF FF FF FF FF FF FF FF FF FF FF FF FF FF FF FF FF FF FF FF FF FF FF FF FF FF FF FF FF FF FF FF FF FF FF FF FF FF FF FF FF FF FF FF FF FF FF FF FF FF FF FF FF FF FF FF FF FF FF FF FF FF FF FF FF FF FF FF FF FF FF FF FF FF FF FF FF FF FF FF FF FF FF FF FF*
0,1585,5:32.873.089,276.800 us,1 B,,SP,68,Read Transaction,02*
0,1586,5:32.873.421,18.685.200 ms,5 B,,SP,5A,Write Transaction,FD 03 A1 30 2F
0,1587,5:32.909.437,1.826.400 ms,1 B,,SP,68,Read Transaction,02*
0,1588,5:32.911.391,169.100 us,1 B,,SP,68,Write Transaction,05
0,1589,5:32.911.713,24.254.100 ms,150 B,,SP,5A,Read Transaction,FD 10 31 00 00 00 0A 00 67 00 00 01 2C FD 04 C0 41 2F FF FF FF FF FF FF FF FF FF FF FF FF FF FF FF FF FF FF FF FF FF FF FF FF FF FF FF FF FF FF FF FF FF FF FF FF FF FF FF FF FF FF FF FF FF FF FF FF FF FF FF FF FF FF FF FF FF FF FF FF FF FF FF FF FF FF FF FF FF FF FF FF FF FF FF FF FF FF FF FF FF FF FF FF FF FF FF FF FF FF FF FF FF FF FF FF FF FF FF FF FF FF FF FF FF FF FF FF FF FF FF FF FF FF FF FF FF FF FF FF FF FF FF FF FF FF FF FF FF FF FF FF*
0,1590,5:33.007.339,1.632.200 ms,1 B,,SP,68,Read Transaction,05*
0,1591,5:33.009.073,547.000 us,5 B,,SP,5A,Write Transaction,FD 03 A1 31 2E
0,1592,5:33.112.239,127.300 us,1 B,,SP,68,Read Transaction,05*
0,1593,5:33.112.405,90.600 us,1 B,,SP,68,Write Transaction,06
0,1594,5:33.112.626,3.075.400 ms,92 B,,SP,5A,Write Transaction,FD 5A 30 00 00 00 54 00 02 66 65 38 30 3A 3A 35 65 66 33 3A 66 63 66 66 3A 66 65 32 35 3A 64 38 62 30 00 00 00 00 00 00 00 00 00 00 00 00 00 00 00 36 32 31 33 00 00 FD 7A 96 A3 27 DE 25 38 10 59 AC 70 18 30 01 08 04 43 CB 7D A7 58 79 12 B2 6B 1B 0D F3 AB 6E CD 78 2F FF 7B F1
0,1595,5:35.168.320,161.000 us,1 B,,SP,68,Read Transaction,06*
0,1596,5:35.168.535,94.000 us,1 B,,SP,68,Write Transaction,01
0,1597,5:35.168.803,120.800 us,1 B,,S,72,Write Transaction,03
0,1598,5:35.168.923,132.100 us,1 B,,SP,72,Read Transaction,50*
0,1599,5:35.186.540,271.600 us,1 B,,SP,68,Read Transaction,01*
0,1600,5:35.186.881,90.900 us,1 B,,SP,68,Write Transaction,02
0,1601,5:35.187.098,166.900 us,1 B,,S,72,Write Transaction,03
0,1602,5:35.187.265,356.500 us,1 B,,SP,72,Read Transaction,50*
0,1603,5:35.194.286,135.700 us,1 B,,SP,68,Read Transaction,02*
0,1604,5:35.194.469,94.600 us,1 B,,SP,68,Write Transaction,03
0,1605,5:35.194.737,123.600 us,1 B,,S,72,Write Transaction,03
0,1606,5:35.194.860,140.600 us,1 B,,SP,72,Read Transaction,50*
0,1607,5:35.201.747,136.600 us,1 B,,SP,68,Read Transaction,03*
0,1608,5:35.201.924,89.000 us,1 B,,SP,68,Write Transaction,04
0,1609,5:35.202.149,124.700 us,1 B,,S,72,Write Transaction,03
0,1610,5:35.202.274,136.100 us,1 B,,SP,72,Read Transaction,50*
0,1611,5:35.211.206,255.000 us,1 B,,SP,68,Read Transaction,04*
0,1612,5:35.211.534,87.300 us,1 B,,SP,68,Write Transaction,05
0,1613,5:35.211.758,127.100 us,1 B,,S,72,Write Transaction,03
0,1614,5:35.211.885,147.000 us,1 B,,SP,72,Read Transaction,50*
0,1615,5:35.218.812,140.100 us,1 B,,SP,68,Read Transaction,05*
0,1616,5:35.219.003,90.400 us,1 B,,SP,68,Write Transaction,06
0,1617,5:35.219.226,134.000 us,1 B,,S,72,Write Transaction,03
0,1618,5:35.219.360,149.100 us,1 B,,SP,72,Read Transaction,50*
0,1619,5:35.221.948,127.200 us,1 B,,SP,68,Read Transaction,06*
0,1620,5:35.222.113,119.500 us,1 B,,SP,68,Write Transaction,07
0,1621,5:35.222.380,129.500 us,1 B,,S,72,Write Transaction,03
0,1622,5:35.222.509,136.400 us,1 B,,SP,72,Read Transaction,50*
0,1623,5:35.227.646,167.500 us,1 B,,SP,1B,Read Transaction,20*
0,1624,5:35.227.846,121.800 us,1 B,,SP,1C,Read Transaction,DF*
0,1625,5:35.352.390,459.300 us,1 B,,SP,68,Read Transaction,07*
0,1626,5:35.352.935,94.200 us,1 B,,SP,68,Write Transaction,06
0,1627,5:35.353.168,4.944.300 ms,150 B,,SP,5A,Read Transaction,FD 02 30 D0 FF FF FF FF FF FF FF FF FF FF FF FF FF FF FF FF FF FF FF FF FF FF FF FF FF FF FF FF FF FF FF FF FF FF FF FF FF FF FF FF FF FF FF FF FF FF FF FF FF FF FF FF FF FF FF FF FF FF FF FF FF FF FF FF FF FF FF FF FF FF FF FF FF FF FF FF FF FF FF FF FF FF FF FF FF FF FF FF FF FF FF FF FF FF FF FF FF FF FF FF FF FF FF FF FF FF FF FF FF FF FF FF FF FF FF FF FF FF FF FF FF FF FF FF FF FF FF FF FF FF FF FF FF FF FF FF FF FF FF FF FF FF FF FF FF FF*
0,1628,5:35.365.408,138.800 us,1 B,,SP,68,Read Transaction,06*
0,1629,5:35.365.592,19.851.600 ms,5 B,,SP,5A,Write Transaction,FD 03 A1 30 2F
0,1630,5:35.437.976,189.700 us,1 B,,SP,68,Read Transaction,06*
0,1631,5:35.438.224,91.500 us,1 B,,SP,68,Write Transaction,02
0,1632,5:35.438.455,224.700 us,4 B,,SP,5A,Write Transaction,FD 02 31 CF
0,1633,5:37.493.603,491.900 us,1 B,,SP,68,Read Transaction,02*
0,1634,5:37.494.396,1.131.000 ms,1 B,,SP,68,Write Transaction,01
0,1635,5:37.495.888,203.200 us,1 B,,S,72,Write Transaction,03
0,1636,5:37.496.091,382.000 us,1 B,,SP,72,Read Transaction,50*
0,1637,5:37.498.965,302.800 us,1 B,,SP,68,Read Transaction,01*
0,1638,5:37.499.344,120.200 us,1 B,,SP,68,Write Transaction,02
0,1639,5:37.499.789,179.600 us,1 B,,S,72,Write Transaction,03
0,1640,5:37.499.968,143.200 us,1 B,,SP,72,Read Transaction,50*
0,1641,5:37.502.555,141.800 us,1 B,,SP,68,Read Transaction,02*
0,1642,5:37.502.745,95.000 us,1 B,,SP,68,Write Transaction,03
0,1643,5:37.502.981,125.300 us,1 B,,S,72,Write Transaction,03
0,1644,5:37.503.107,146.100 us,1 B,,SP,72,Read Transaction,50*
0,1645,5:37.505.746,195.800 us,1 B,,SP,68,Read Transaction,03*
0,1646,5:37.505.987,94.300 us,1 B,,SP,68,Write Transaction,04
0,1647,5:37.506.219,122.500 us,1 B,,S,72,Write Transaction,03
0,1648,5:37.506.341,147.700 us,1 B,,SP,72,Read Transaction,50*
0,1649,5:37.513.237,157.800 us,1 B,,SP,68,Read Transaction,04*
0,1650,5:37.513.448,93.200 us,1 B,,SP,68,Write Transaction,05
0,1651,5:37.513.697,172.000 us,1 B,,S,72,Write Transaction,03
0,1652,5:37.513.869,203.500 us,1 B,,SP,72,Read Transaction,50*
0,1653,5:37.520.723,138.100 us,1 B,,SP,68,Read Transaction,05*
0,1654,5:37.520.908,88.500 us,1 B,,SP,68,Write Transaction,06
0,1655,5:37.521.146,123.300 us,1 B,,S,72,Write Transaction,03
0,1656,5:37.521.269,141.100 us,1 B,,SP,72,Read Transaction,50*
0,1657,5:37.523.891,322.200 us,1 B,,SP,68,Read Transaction,06*
0,1658,5:37.524.281,93.600 us,1 B,,SP,68,Write Transaction,07
0,1659,5:37.524.499,123.400 us,1 B,,S,72,Write Transaction,03
0,1660,5:37.524.622,161.900 us,1 B,,SP,72,Read Transaction,50*
0,1661,5:37.526.231,109.200 us,1 B,,SP,1B,Read Transaction,02*
0,1662,5:37.526.372,108.400 us,1 B,,SP,1C,Read Transaction,FD*
0,1663,5:37.592.701,1.100.400 ms,1 B,,SP,68,Read Transaction,07*
0,1664,5:37.593.887,131.100 us,1 B,,SP,68,Write Transaction,02
0,1665,5:37.594.151,23.420.000 ms,150 B,,SP,5A,Read Transaction,FD 10 31 00 00 00 0A 00 67 00 00 01 2C FD 04 C0 41 2F FF FF FF FF FF FF FF FF FF FF FF FF FF FF FF FF FF FF FF FF FF FF FF FF FF FF FF FF FF FF FF FF FF FF FF FF FF FF FF FF FF FF FF FF FF FF FF FF FF FF FF FF FF FF FF FF FF FF FF FF FF FF FF FF FF FF FF FF FF FF FF FF FF FF FF FF FF FF FF FF FF FF FF FF FF FF FF FF FF FF FF FF FF FF FF FF FF FF FF FF FF FF FF FF FF FF FF FF FF FF FF FF FF FF FF FF FF FF FF FF FF FF FF FF FF FF FF FF FF FF FF FF*
0,1666,5:37.620.191,163.000 us,1 B,,SP,68,Read Transaction,02*
0,1667,5:37.620.405,16.460.200 ms,5 B,,SP,5A,Write Transaction,FD 03 A1 31 2E
0,1668,5:37.742.820,452.800 us,1 B,,SP,68,Read Transaction,02*
0,1669,5:37.743.342,93.100 us,1 B,,SP,68,Write Transaction,06
0,1670,5:37.743.573,16.526.600 ms,4 B,,SP,5A,Write Transaction,FD 02 31 CF
0,1671,5:39.842.169,323.800 us,1 B,,SP,68,Read Transaction,06*
0,1672,5:39.842.560,93.400 us,1 B,,SP,68,Write Transaction,01
0,1673,5:39.842.888,131.600 us,1 B,,S,72,Write Transaction,03
0,1674,5:39.843.019,141.700 us,1 B,,SP,72,Read Transaction,50*
0,1675,5:39.846.328,219.900 us,1 B,,SP,68,Read Transaction,01*
0,1676,5:39.846.599,89.800 us,1 B,,SP,68,Write Transaction,02
0,1677,5:39.846.835,121.000 us,1 B,,S,72,Write Transaction,03
0,1678,5:39.846.956,137.600 us,1 B,,SP,72,Read Transaction,50*
0,1679,5:39.850.674,352.700 us,1 B,,SP,68,Read Transaction,02*
0,1680,5:39.851.114,183.900 us,1 B,,SP,68,Write Transaction,03
0,1681,5:39.851.482,415.300 us,1 B,,S,72,Write Transaction,03
0,1682,5:39.851.897,754.000 us,1 B,,SP,72,Read Transaction,50*
0,1683,5:39.855.118,130.300 us,1 B,,SP,68,Read Transaction,03*
0,1684,5:39.855.294,93.900 us,1 B,,SP,68,Write Transaction,04
